# GHZ S DB R 50
0.001000000000 -46.621958470793 -2.392890287631 -9.626558733804 -1.304498039857 -9.581189545506 -0.339908950265 -49.617722967543 -0.363728068048
0.012998000000 -48.930489174136 -10.346577674220 -9.936866305497 -1.703971998987 -9.908818195737 -1.922578125852 -48.467957259860 -57.094099344937
0.024996000000 -46.513271933328 -33.019369436457 -9.957084048238 -2.415872004347 -9.957159363705 -2.634959507219 -43.358610292204 -78.071020909243
0.036994000000 -44.669278127274 -54.743881005780 -9.958519526884 -3.891631105552 -9.942632878214 -4.164271052372 -40.016602866016 -92.990522880907
0.048992000000 -42.873196339675 -69.445371907355 -9.956468957079 -4.705861539266 -9.941271541558 -4.966258449768 -37.680445741544 -102.703054122577
0.060990000000 -41.386206192050 -81.479308400552 -9.962651420081 -5.425978235631 -9.958951504473 -5.667563198189 -35.901209404058 -110.747266017771
0.072988000000 -40.021557644612 -92.185061378336 -9.958219689269 -5.963544622820 -9.963878639326 -6.191810757573 -34.433389946192 -117.941160299383
0.084986000000 -38.893399590113 -102.306219555196 -9.953497211541 -6.730814486877 -9.958143123493 -6.950791725787 -33.267257423502 -125.224964438404
0.096984000000 -37.919690473198 -111.779551990404 -9.946145848866 -7.565327925795 -9.950281500177 -7.728046573540 -32.307542817270 -132.270658751104
0.108982000000 -37.102049671021 -120.884434354912 -9.944115390011 -8.410075738851 -9.941327267236 -8.543161435429 -31.515988765212 -139.117407312367
0.120980000000 -36.406639106324 -129.527602284521 -9.948929255224 -9.251556909768 -9.939153391461 -9.383079743008 -30.862711768899 -145.984104261650
0.132978000000 -35.828626022533 -137.942525151304 -9.958558908183 -10.072674586869 -9.941216802222 -10.198744798192 -30.346094416300 -152.858870029795
0.144976000000 -35.361663907663 -146.333048725916 -9.968187322306 -10.848628066368 -9.946859469594 -11.045614174370 -29.941743327922 -159.829126866316
0.156974000000 -35.010028139683 -154.642932272669 -9.979675227344 -11.579398749423 -9.953878154306 -11.829316988457 -29.660845099703 -166.809747845552
0.168972000000 -34.783136697114 -162.788713191966 -9.981041290090 -12.282198335380 -9.959820054830 -12.607858041272 -29.510607103124 -173.890935622401
0.180970000000 -34.676382273205 -170.719783996783 -9.976883807540 -13.034832627438 -9.962663593054 -13.375334860877 -29.457321141843 179.106764179619
0.192968000000 -34.702619762687 -178.513866809832 -9.964302513177 -13.788305915916 -9.961489136610 -14.148977052731 -29.531827113484 172.128377096241
0.204966000000 -34.851723426344 173.727815896420 -9.960342441836 -14.591945132097 -9.965952002975 -14.937708238509 -29.716305030220 165.114189522893
0.216964000000 -35.104808273525 166.136533528719 -9.957696007766 -15.417076729394 -9.966329531661 -15.738908463984 -30.033778778212 158.157755038158
0.228962000000 -35.493672837793 158.752472477651 -9.962153009982 -16.266681598181 -9.972518747695 -16.577013943093 -30.492761230195 151.289404887496
0.240960000000 -36.000844050171 151.633796859764 -9.971593306202 -17.096248187102 -9.978155626066 -17.351226969991 -31.128886431484 144.536896599553
0.252958000000 -36.630673586990 144.715724550372 -9.983591748058 -17.860596279668 -9.985302501327 -18.119960092283 -31.925462623563 137.663181917938
0.264956000000 -37.415456235507 138.082438436715 -9.991441721441 -18.611524536369 -9.989033572635 -18.868621130344 -32.893483385014 130.948763441203
0.276954000000 -38.354718439503 131.844325957520 -9.997340750465 -19.355946603946 -9.989519222118 -19.570793894390 -34.091577076294 124.199590529927
0.288952000000 -39.492816966273 125.830965932718 -9.994446818964 -20.052626727223 -9.986159755896 -20.290725644701 -35.590774948749 117.338605348252
0.300950000000 -40.876639159205 120.196348420355 -9.988253363017 -20.806244694559 -9.980264810254 -21.068379214929 -37.524236559198 110.142572274189
0.312948000000 -42.616850602165 115.076619690948 -9.978977756587 -21.566979646934 -9.974261471552 -21.838048938738 -40.101413478407 102.509090161691
0.324946000000 -44.803486535257 111.391199827940 -9.974458379851 -22.387763435751 -9.968992664990 -22.608659856528 -43.879364703731 94.239665730987
0.336944000000 -47.769518727288 110.359995079670 -9.972856300967 -23.187321164160 -9.969144759193 -23.423468484316 -50.830670875771 80.122248198606
0.348942000000 -51.872350684868 117.978288788460 -9.977235091439 -24.001159098192 -9.970801572705 -24.243587091779 -59.631123516163 -54.627601051029
0.360940000000 -56.614464958877 152.434195158472 -9.981248868152 -24.788501275411 -9.971626710881 -25.030316817411 -46.975443536948 -90.475990174814
0.372938000000 -54.082845750752 -154.636440516829 -9.985613528194 -25.536423027501 -9.978139022778 -25.803689965474 -41.911856270502 -100.025521846063
0.384936000000 -49.269527396088 -139.534014496755 -9.984768918107 -26.282768104115 -9.980847323368 -26.564566864038 -38.740048623419 -107.930847766148
0.396934000000 -45.894343977922 -138.124242267652 -9.979762887603 -27.080266723981 -9.979280839686 -27.349470729100 -36.458789895638 -115.252911269314
0.408932000000 -43.470426331891 -140.507222019548 -9.974612209115 -27.853466298107 -9.978419946100 -28.131669670477 -34.733033741002 -122.075867195937
0.420930000000 -41.597898238238 -144.744148546515 -9.970968162194 -28.656813899386 -9.975662294622 -28.892143929758 -33.387046337255 -128.782790686709
0.432928000000 -40.171112767536 -149.867724665601 -9.969704384248 -29.506124648920 -9.974293281874 -29.692147362353 -32.297626867749 -135.409908074276
0.444926000000 -39.047957696303 -155.732583609047 -9.974113674870 -30.339818243196 -9.972230345781 -30.508794978194 -31.415236762193 -142.059780242411
0.456924000000 -38.125976861819 -161.504338424630 -9.982153812190 -31.128932756315 -9.977953380362 -31.300441121617 -30.701259965691 -148.768045123172
0.468922000000 -37.420169090643 -167.377581479069 -9.990379507236 -31.904516074738 -9.981128740562 -32.086219113061 -30.149030600721 -155.363710219159
0.480920000000 -36.855026725625 -173.395438545192 -9.997763156282 -32.685694290680 -9.983939321150 -32.868404739356 -29.719439763137 -162.001689092491
0.492918000000 -36.461646398731 -179.797318955264 -10.003939930001 -33.455723401276 -9.986593214570 -33.690368082935 -29.429505160264 -168.573458076171
0.504916000000 -36.199912392639 173.923975235702 -10.008173019431 -34.188067353511 -9.988734571443 -34.460455591001 -29.257609230113 -175.060989096003
0.516914000000 -36.054168448468 168.041638680847 -10.002527752636 -34.935797524598 -9.991969574173 -35.256929873870 -29.207167755415 178.495319733816
0.528912000000 -36.005446573420 162.372964129072 -9.998565801361 -35.714113970653 -9.994356047282 -36.044448626710 -29.266428649830 172.095369587448
0.540910000000 -36.060052867535 156.984517917196 -9.992290510845 -36.517647400346 -9.994928011559 -36.810446679824 -29.420654889018 165.708745555943
0.552908000000 -36.200366356392 151.815873761521 -9.998251597272 -37.304894957587 -9.999177002254 -37.549829628129 -29.706727252444 159.415510014689
0.564906000000 -36.432262031613 147.046200317085 -9.999699421810 -38.089983485202 -9.999852655117 -38.308865325730 -30.092351498564 153.300484197554
0.576904000000 -36.744857363202 142.755834105709 -10.004574249055 -38.871339846752 -10.002609080455 -39.057398470289 -30.599367921050 147.300429260530
0.588902000000 -37.107049660501 138.623460596566 -10.012584857597 -39.652414926267 -10.006315803498 -39.814757031550 -31.240279180585 141.529578223487
0.600900000000 -37.551703222858 134.678989242482 -10.017251758913 -40.395833619498 -10.006338130081 -40.565021378933 -32.041780492714 135.771189496789
0.612898000000 -38.040629662786 131.218503467242 -10.013523383080 -41.128649386684 -10.009273427095 -41.292997796018 -33.046358167865 130.275177895576
0.624896000000 -38.599371267527 128.344025111565 -10.009226991329 -41.864865350703 -10.001312438409 -42.047856842523 -34.263425430418 125.183395127277
0.636894000000 -39.179423515868 126.055583724845 -10.007386967383 -42.652401745102 -9.996155406520 -42.865537764797 -35.769759357976 120.552173361116
0.648892000000 -39.809984946362 123.991694931074 -10.004078048782 -43.450301035339 -9.991983634201 -43.655951481266 -37.688807083075 116.998783584574
0.660890000000 -40.498303462500 122.790570169110 -9.997666571792 -44.215904773354 -9.990847860173 -44.434168101218 -40.274946259472 115.355218514148
0.672888000000 -41.173845516896 122.374720138832 -9.995063387631 -45.023289185189 -9.990735707389 -45.287778587419 -43.897873828483 119.117669881902
0.684886000000 -41.955855963748 122.439950983250 -9.997401231104 -45.840891862673 -9.990148645327 -46.085252151729 -48.818215658235 140.709008476572
0.696884000000 -42.783788541241 123.512339490649 -9.999816145517 -46.619717143487 -9.992783511824 -46.899293536285 -49.353087288978 -161.735796562499
0.708882000000 -43.656101303585 126.232701607517 -10.003735384813 -47.400096332711 -9.998445447746 -47.697250871317 -44.211095439189 -136.602317176280
0.720880000000 -44.486126284348 131.180496190371 -10.006392028733 -48.209637545481 -10.000074140532 -48.486471891182 -40.466993595677 -132.213134175388
0.732878000000 -45.010679448492 137.065141988615 -10.005679134019 -48.968518498141 -10.005898702229 -49.255753122992 -37.830928701501 -133.424816800379
0.744876000000 -45.341222475295 144.341781525745 -9.998389146379 -49.752063628941 -10.007705984966 -50.023874434201 -35.862671462307 -136.726523067158
0.756874000000 -45.348209934617 152.073886592631 -9.998441765635 -50.561746533727 -10.009206018689 -50.832825439853 -34.303217213087 -141.369874603817
0.768872000000 -44.996579117872 159.848779055334 -9.996883937570 -51.344664255996 -10.007412482815 -51.581577658637 -33.086184482854 -146.455023478186
0.780870000000 -44.381968560767 165.965798090034 -9.999532479370 -52.167446169612 -10.011377597245 -52.352154361646 -32.106372585861 -151.628230084912
0.792868000000 -43.592474908639 170.322507593454 -10.003666176785 -52.998572817093 -10.006046453837 -53.188893512678 -31.314955944762 -157.371025375736
0.804866000000 -42.707155997271 173.702788139478 -10.012186384792 -53.813265273222 -10.008535585943 -53.960709972140 -30.699468388163 -163.030952279097
0.816864000000 -41.870583101017 175.731340104935 -10.019665143311 -54.579654965640 -10.008171967817 -54.748008477307 -30.221008310282 -168.742522845007
0.828862000000 -40.979630134209 176.658401501854 -10.030839999923 -55.330879283716 -10.011445014116 -55.527981581079 -29.868457122139 -174.697296931351
0.840860000000 -40.151278949854 176.779193495573 -10.034226591298 -56.080438898778 -10.014905728242 -56.304343515074 -29.640206686268 179.331175687781
0.852858000000 -39.328287735674 176.313799973484 -10.034120758950 -56.774933463748 -10.015123883952 -57.072548624053 -29.524303555770 173.551917288993
0.864856000000 -38.537386095736 175.285340695062 -10.033855711517 -57.531415138157 -10.020362465786 -57.817186105699 -29.494345631665 167.769316063265
0.876854000000 -37.750285827360 174.011733846082 -10.030632089627 -58.349014529149 -10.026024956981 -58.620613249182 -29.566221772154 162.075682900677
0.888852000000 -36.977502820608 172.378190218605 -10.024104153559 -59.125795532629 -10.022964109562 -59.379694556862 -29.767574018292 156.510516103630
0.900850000000 -36.253723321757 169.723296348234 -10.025369943513 -59.939924606931 -10.025074378021 -60.172229941543 -30.064891026747 151.045523981252
0.912848000000 -35.592611555523 166.629487676542 -10.031747162821 -60.748535602106 -10.028757019019 -60.932522478894 -30.444921625000 145.652273149276
0.924846000000 -34.994662280206 163.112762148797 -10.037144669152 -61.535787496164 -10.031206910230 -61.737333979927 -30.911984084436 140.676818569695
0.936844000000 -34.420190902120 159.256138268683 -10.042381057157 -62.294530942840 -10.034619554296 -62.476257179999 -31.534303527130 135.746286740121
0.948842000000 -33.906963767465 154.860069735054 -10.046111138815 -63.024201943304 -10.033679364297 -63.222320156814 -32.286647378367 131.418629146041
0.960840000000 -33.488016276430 149.977849452675 -10.036752849127 -63.748427855877 -10.029696404377 -63.930967406610 -33.196680342103 127.390393777208
0.972838000000 -33.101518793536 144.762537868165 -10.027931542200 -64.506121778990 -10.030583631854 -64.686720610496 -34.267828684945 124.044094064769
0.984836000000 -32.831465803754 139.560516808912 -10.015483294536 -65.274395599264 -10.026372451454 -65.457607997184 -35.552484650239 122.081406476905
0.996834000000 -32.621402063114 133.637959459951 -10.013717492806 -66.053711643100 -10.014858584374 -66.219218239998 -37.092256469285 120.999163821678
1.008832000000 -32.496358980116 127.855538389047 -10.012522480078 -66.862572987679 -10.010250164688 -67.006268799884 -38.796767264249 122.840067484704
1.020830000000 -32.450974175731 121.770750253801 -10.016339098994 -67.660083388882 -10.007128417335 -67.824368675398 -40.804721068383 129.094551192160
1.032828000000 -32.515107414875 115.374551140858 -10.015707824353 -68.478738295120 -10.002670090547 -68.736656065607 -42.500563226926 142.672879437944
1.044826000000 -32.666904826311 109.115074002662 -10.018926195791 -69.244141280696 -9.999580804630 -69.577332820299 -43.058573730982 162.681872335475
1.056824000000 -32.984883670303 102.847420313508 -10.020366180918 -70.034177233766 -10.010932472398 -70.425832223791 -42.008329773383 -178.697673105071
1.068822000000 -33.387021288532 96.312247780331 -10.017543456399 -70.841065196009 -10.022804256206 -71.227074858784 -40.134579066382 -167.775602769752
1.080820000000 -34.012127303103 89.463313630866 -10.018433486007 -71.630235834272 -10.037768566091 -72.001296544779 -38.186979902614 -163.266651430239
1.092818000000 -34.673689697182 82.615906368534 -10.015087144376 -72.441481397985 -10.043611592202 -72.706443737242 -36.603698481808 -162.722212159938
1.104816000000 -35.577699956317 75.544492872440 -10.014954488579 -73.259106573858 -10.044016018620 -73.447005064350 -35.318126285518 -164.556773536932
1.116814000000 -36.688190649218 68.699500563767 -10.021051316748 -74.099856411034 -10.045637042300 -74.164629305917 -34.291698320107 -167.633110566479
1.128812000000 -38.021338869936 60.974153403424 -10.025993676399 -74.909598793905 -10.040648968151 -74.908444874465 -33.468209952318 -171.330576793769
1.140810000000 -39.888117242447 52.463551480862 -10.037587894567 -75.740638847266 -10.033097588707 -75.699373214624 -32.775242985458 -175.568342782443
1.152808000000 -42.423979654643 42.354739719800 -10.049082645143 -76.512159690553 -10.033164618652 -76.532297272293 -32.223019128902 -179.692953031849
1.164806000000 -46.220235169215 27.371157878092 -10.055846913089 -77.263763050472 -10.037385905471 -77.343048232614 -31.835074415613 175.871642137503
1.176804000000 -52.311651034268 -8.397781774486 -10.058529041545 -77.981134177181 -10.045680939691 -78.188504888720 -31.592966154724 171.377085019412
1.188802000000 -52.070707351745 -94.104790239423 -10.058066997530 -78.697818320615 -10.055729633384 -79.002352456156 -31.477008243973 166.801610050260
1.200800000000 -45.802903753667 -128.212526561993 -10.059486615340 -79.461715324869 -10.061219774593 -79.756098291733 -31.475433620792 162.434208382447
1.212798000000 -41.729600074436 -144.103396861921 -10.062158182841 -80.235783220258 -10.064643487646 -80.479053382470 -31.559796088334 158.215219586146
1.224796000000 -38.819444476817 -155.466421297161 -10.072079025109 -80.981854923331 -10.067163787004 -81.191422023478 -31.674850086193 154.100687718490
1.236794000000 -36.682905412715 -165.474756555683 -10.075575742781 -81.827663181644 -10.060287219367 -81.916267108467 -31.878878429826 150.211595877725
1.248792000000 -34.970567933357 -173.906283767708 -10.073977932956 -82.578317256354 -10.058564693874 -82.685204767568 -32.121930114307 146.463438012469
1.260790000000 -33.563429090412 177.498148335957 -10.075765515167 -83.320001988566 -10.056072774795 -83.478669208086 -32.474600048778 143.045452558279
1.272788000000 -32.393406020513 169.338562769230 -10.071131186071 -84.081250243056 -10.063965892626 -84.265895100294 -32.939191753488 139.940044241941
1.284786000000 -31.488404584003 161.660973173103 -10.070577281360 -84.803106094467 -10.067081954821 -85.052449847995 -33.422704601447 137.267164780453
1.296784000000 -30.713184316404 153.698970723745 -10.070197097160 -85.512562291833 -10.067523962762 -85.825462173257 -34.041968195159 135.229630110824
1.308782000000 -30.036626991435 145.649330916331 -10.063177222838 -86.268037642729 -10.060903014106 -86.613353798434 -34.754556377782 134.129155321860
1.320780000000 -29.519502926072 137.462086748500 -10.051921598953 -87.053117448685 -10.048243771274 -87.355925197149 -35.505802888305 134.367000499008
1.332778000000 -29.113010669711 129.417391308907 -10.042191677881 -87.843290872312 -10.024651420860 -88.233557069879 -36.274037269207 135.828768791017
1.344776000000 -28.807128623464 121.261809738579 -10.032506341144 -88.690002521415 -10.013003947889 -89.067527552053 -36.867656018445 138.745284687461
1.356774000000 -28.652685393769 113.105362661721 -10.034454353802 -89.573824455753 -10.004565214878 -89.952883056279 -37.469957965237 142.140794303375
1.368772000000 -28.600614718068 104.900616050205 -10.031574325949 -90.433293453939 -10.006911765762 -90.838332109975 -37.896772671942 147.535240809186
1.380770000000 -28.610354470858 96.861130818975 -10.035969661418 -91.242288323360 -10.016916934235 -91.727852682184 -37.987921652256 153.731142092993
1.392768000000 -28.751020078520 88.498330236455 -10.042959258444 -92.125708494783 -10.040777415952 -92.595141603469 -37.685376350118 160.288510353565
1.404766000000 -29.020279422435 79.801328614753 -10.042807179740 -92.885784427332 -10.070791128966 -93.311128398999 -37.032171708636 164.009284731615
1.416764000000 -29.345997449008 71.033252300239 -10.051613635422 -93.695355291054 -10.095806873959 -93.977300671400 -36.315234902309 166.187774086699
1.428762000000 -29.750500530546 62.058979780322 -10.058430553507 -94.494619689309 -10.107852363410 -94.655848659918 -35.592025748988 167.113799922551
1.440760000000 -30.245183041461 52.261920676567 -10.065656692316 -95.341252412527 -10.108850178044 -95.295014277153 -34.969881022220 166.059782148027
1.452758000000 -30.880936270088 42.150924384686 -10.086234226756 -96.169266411739 -10.103368081719 -95.996782976009 -34.489542653907 164.341008309151
1.464756000000 -31.671984968041 29.939034233151 -10.090652418169 -96.948540473068 -10.079243223860 -96.808983200867 -34.039927172370 162.366033013495
1.476754000000 -32.591553537648 16.849681833665 -10.092393226515 -97.641510698226 -10.062328302851 -97.633119561591 -33.818489992919 160.244420537554
1.488752000000 -33.526660595510 2.444823926227 -10.104299791499 -98.443528999065 -10.055219045162 -98.596590935328 -33.567600930128 157.935807036394
1.500750000000 -34.558833926074 -14.254277607040 -10.113584852400 -99.159406803953 -10.066991177408 -99.436551236460 -33.442683880853 155.318785812547
1.512748000000 -35.353608987453 -33.681187768447 -10.107877905863 -99.856246193993 -10.071603860449 -100.233913516815 -33.360793707831 152.147736960840
1.524746000000 -35.810658320570 -55.721500333394 -10.102587069523 -100.638356700472 -10.080725488911 -101.003185822591 -33.392451655986 149.396780369296
1.536744000000 -35.752022000398 -79.445700620605 -10.100449157292 -101.392587493557 -10.087173258667 -101.698850616842 -33.465958975702 146.758774929437
1.548742000000 -35.001885755926 -101.779692830742 -10.097183108818 -102.180810726913 -10.084720821717 -102.384309536741 -33.616212512718 144.602612517123
1.560740000000 -33.962467609373 -121.398033858500 -10.094093393046 -102.950701283378 -10.076715985110 -103.118045706151 -33.806607910853 142.529345595303
1.572738000000 -32.805167061534 -138.318316787680 -10.092774185523 -103.755541513940 -10.070196974137 -103.919270030986 -34.042200652885 141.107726656417
