# GHZ S DB R 50
0.001000000000 -44.025576785923 -4.548074693215 -5.632377170514 -0.607309293810 -5.569052891870 0.138660779075 -45.891686441723 -8.410919555051
0.012998000000 -55.204977029251 -8.634380182172 -5.960131647550 -1.516695276348 -5.938819274068 -1.676466481073 -51.688161887127 -80.582515230237
0.024996000000 -51.330507874577 -30.164139160226 -5.979732488525 -2.224380533436 -5.977844123996 -2.430432627286 -46.021211997498 -88.593764799714
0.036994000000 -49.031616973447 -56.305621615835 -5.982500870213 -3.578941027303 -5.971582056099 -3.744046360551 -42.201847582492 -100.353289737245
0.048992000000 -46.786155743967 -68.334778227362 -5.977280139299 -4.390307211053 -5.968982762013 -4.504369725307 -39.810907007801 -106.689412563060
0.060990000000 -44.988135454400 -77.351318910616 -5.987325408994 -5.146962221976 -5.986094550541 -5.276459505996 -38.035551831065 -112.296480525203
0.072988000000 -43.163378661459 -85.769558589163 -5.986293518009 -5.726974063455 -5.990435326084 -5.879254358380 -36.480288053249 -117.609449208829
0.084986000000 -41.741157648695 -94.850710227929 -5.982936176639 -6.500548483893 -5.986751383868 -6.635332208218 -35.227720762548 -123.428136643107
0.096984000000 -40.529406029887 -103.339009591372 -5.977274004738 -7.312436977864 -5.981796954437 -7.412873618936 -34.194237447933 -129.436180640747
0.108982000000 -39.476237847199 -111.877081789919 -5.975300883336 -8.155302343630 -5.973660428896 -8.216807430102 -33.318395151025 -135.356313576309
0.120980000000 -38.571120857912 -120.227083175327 -5.979670269921 -8.978728153930 -5.970999262868 -9.045272197567 -32.563416498431 -141.444438046653
0.132978000000 -37.800919446946 -128.409990039911 -5.987879031291 -9.796388059955 -5.971818182833 -9.868629772544 -31.948820368574 -147.766466163046
0.144976000000 -37.174808865518 -136.805277638722 -5.995675710021 -10.597063555285 -5.975625139955 -10.711796523352 -31.453114539395 -154.391242800962
0.156974000000 -36.675682972312 -145.337479545979 -6.005595918800 -11.330661223104 -5.982545528726 -11.503627323103 -31.084676016588 -161.076932663491
0.168972000000 -36.351834462931 -153.705639018832 -6.007380208027 -12.041000089166 -5.986986490076 -12.259935736798 -30.895735626913 -168.060724919158
0.180970000000 -36.165008907617 -161.707510349749 -6.004164596585 -12.797882260030 -5.989031102411 -13.034684769882 -30.804301688237 -174.914013098228
0.192968000000 -36.207288333661 -169.726309840552 -5.997789819370 -13.571787889425 -5.993068519764 -13.818265993808 -30.844329289588 178.252443951330
0.204966000000 -36.321588183001 -177.704038251801 -5.991043275014 -14.363476598032 -5.992569724502 -14.599727134997 -31.024288909447 171.411072384708
0.216964000000 -36.558161456583 174.671790845819 -5.989439608743 -15.189633613949 -5.995398193711 -15.378565491571 -31.383563520868 164.847666137129
0.228962000000 -36.918108460457 167.329803991125 -5.991137748596 -16.023235546191 -5.997057042863 -16.217026011534 -31.827088399282 158.524885403930
0.240960000000 -37.409548296793 160.681354225593 -5.999100912768 -16.853007501074 -6.003912940886 -16.999584990410 -32.417008981086 152.227071981310
0.252958000000 -38.000427584743 154.384023112542 -6.009637172522 -17.614053495269 -6.009687927840 -17.779661401569 -33.195440723224 146.032118832656
0.264956000000 -38.750882067703 148.679560564226 -6.017680425464 -18.386016096031 -6.014396104189 -18.545221320980 -34.110247997912 140.298415520829
0.276954000000 -39.512394178379 143.455989007542 -6.022832140128 -19.129670083556 -6.015216180988 -19.262956443950 -35.231592347814 134.901456551073
0.288952000000 -40.482814429932 138.597436387533 -6.022920199759 -19.867281720913 -6.013779692475 -19.994731913382 -36.590644118565 129.686046520240
0.300950000000 -41.614647952572 133.961659759111 -6.016866890706 -20.604714162312 -6.009983895854 -20.744245875426 -38.327218412411 124.884799361733
0.312948000000 -43.095491808136 130.026017285462 -6.011374369661 -21.351810426756 -6.006409758350 -21.531971277982 -40.572093548538 120.328293322743
0.324946000000 -44.826135761608 126.233697240134 -6.007135514964 -22.153701195457 -6.000888270525 -22.294231885241 -44.028041501295 115.725603749091
0.336944000000 -46.926383696127 125.144226440285 -6.005494185504 -22.960129490032 -6.000116730418 -23.134398610219 -49.551692043681 117.253799776716
0.348942000000 -49.662910490672 127.808690605256 -6.008450031506 -23.768004532788 -5.999319911516 -23.924155784170 -60.910021337015 179.197568046004
0.360940000000 -53.296677809903 139.557638548352 -6.012464565956 -24.539893215752 -6.003282673690 -24.718313032697 -50.138644147736 -105.852629185474
0.372938000000 -56.316331763185 177.463340920317 -6.015165327544 -25.318341974809 -6.007953018541 -25.502429826602 -44.199076529875 -102.461645548265
0.384936000000 -53.178181323688 -142.356213367934 -6.015361543790 -26.092595927384 -6.010202820336 -26.271446596588 -40.562349446819 -106.016553670597
0.396934000000 -48.977849042673 -130.328866271349 -6.010222539205 -26.841240110473 -6.011526043561 -27.036283229163 -37.993088857613 -111.355491172542
0.408932000000 -45.833161436012 -129.244949242366 -6.008299764711 -27.625159946981 -6.010387291881 -27.810630635205 -36.087912371707 -116.659579234474
0.420930000000 -43.467070306157 -131.860011412870 -6.004702248108 -28.448707436857 -6.008890211435 -28.578387186195 -34.580976305579 -122.332922340199
0.432928000000 -41.680599493705 -136.080509417235 -6.001954419143 -29.279100014052 -6.004743828180 -29.385387412609 -33.360945909418 -128.147895209576
0.444926000000 -40.273997885199 -141.248321398915 -6.005099591685 -30.109920700007 -6.004497535286 -30.176653823898 -32.359159373759 -134.421452170103
0.456924000000 -39.147857982514 -146.723076199413 -6.011396920378 -30.896481215759 -6.005085508627 -30.986431744527 -31.550315732079 -140.801565943590
0.468922000000 -38.259777825541 -152.576655839097 -6.019483798171 -31.674316541990 -6.009036133920 -31.781686343435 -30.930666762625 -147.061675722168
0.480920000000 -37.553891541653 -158.603705392034 -6.026760476415 -32.453622161164 -6.011865122661 -32.568550161888 -30.438490231429 -153.491553109211
0.492918000000 -37.031868386903 -164.801316250345 -6.033502216675 -33.226753724973 -6.014366998157 -33.394583932676 -30.106804178703 -159.852389017283
0.504916000000 -36.650774860586 -171.026722914161 -6.035666589748 -33.960511994613 -6.016285826295 -34.167892872687 -29.914279425380 -166.023715038296
0.516914000000 -36.379912438495 -176.888393517398 -6.033696116971 -34.732759758857 -6.019306571441 -34.957914772685 -29.815851247628 -172.009452659228
0.528912000000 -36.192851535134 177.482403551702 -6.029738370615 -35.475420798207 -6.023221761852 -35.745986522875 -29.842705561155 -178.091102914061
0.540910000000 -36.076573930240 172.164333905516 -6.022574492834 -36.305275768420 -6.024442950215 -36.498227764722 -29.936605533746 175.844455783333
0.552908000000 -36.084228853761 167.122308061947 -6.028678906775 -37.095632744484 -6.027571275390 -37.256330759024 -30.178003933847 170.054759828222
0.564906000000 -36.156813264754 162.552663237963 -6.029019322695 -37.870094882633 -6.029357570578 -38.035059333473 -30.497158173408 164.606460788858
0.576904000000 -36.262286057641 158.656752137202 -6.034406003667 -38.662067905673 -6.034737886244 -38.821101935825 -30.909942538781 159.272216800160
0.588902000000 -36.395808512726 154.349229260835 -6.042278617275 -39.468163117705 -6.036067201860 -39.564073793098 -31.445305263193 154.303506826693
0.600900000000 -36.611061723196 149.832441472114 -6.047032120530 -40.222637699855 -6.038306074866 -40.333449790094 -32.129443530995 149.378629140224
0.612898000000 -36.897264089436 145.392236326287 -6.045385292852 -40.931922249451 -6.043543270027 -41.049620225876 -32.991806784444 144.763473427002
0.624896000000 -37.278878204765 141.095167864007 -6.039657110800 -41.667424517548 -6.034987952928 -41.791856402678 -34.017687531189 140.465530426244
0.636894000000 -37.665653571072 136.850179382458 -6.042120001251 -42.457413490468 -6.031459913726 -42.611848164821 -35.226618397830 136.776504532160
0.648892000000 -38.127399772504 132.648497396023 -6.037416124436 -43.246641632116 -6.026400063014 -43.390299895458 -36.693077514296 134.349616628851
0.660890000000 -38.683549715744 128.982651089970 -6.030142296368 -44.015097108472 -6.023280589930 -44.168295594962 -38.573577636963 133.691919388652
0.672888000000 -39.322433298339 125.526022763766 -6.027222746920 -44.816022782182 -6.020784500229 -45.007244663595 -40.831104102612 136.569392301357
0.684886000000 -40.157129384228 122.116133137163 -6.027097534771 -45.609394774668 -6.018368074511 -45.804201797424 -43.570852785835 146.787226650896
0.696884000000 -41.328976439065 119.430722600983 -6.029212341706 -46.427876290186 -6.022437201872 -46.599522788537 -45.849798897362 172.603276181323
0.708882000000 -42.727279636901 118.240375684781 -6.032565572274 -47.201188111738 -6.026000314154 -47.413799976839 -44.673294622031 -155.879825192145
0.720880000000 -44.513852977001 119.825390659030 -6.037915598604 -47.992729832985 -6.031910531838 -48.202944651047 -41.752028457515 -139.968185230477
0.732878000000 -46.443968215922 125.360815434190 -6.036012918269 -48.754469249868 -6.034434726273 -48.955869959327 -39.091247199598 -134.339586047986
0.744876000000 -48.535044722252 138.588063494593 -6.031688661045 -49.544975758049 -6.037319208900 -49.730336926422 -36.915905327328 -133.850918129626
0.756874000000 -49.453258077757 159.915087892807 -6.030655118744 -50.335019757265 -6.038491972402 -50.507032861429 -35.146976869774 -136.500789296232
0.768872000000 -48.414525301287 -177.221651242018 -6.029829762162 -51.130631690806 -6.036042235250 -51.281477278519 -33.755034752135 -140.215279564547
0.780870000000 -46.159993580280 -164.352494099426 -6.030640568608 -51.934989848749 -6.038306274859 -52.048074664509 -32.620523822264 -144.248023709038
0.792868000000 -43.994757981685 -158.948684429110 -6.033446523101 -52.770966539370 -6.032364782383 -52.887356666178 -31.703576784237 -149.319989270619
0.804866000000 -42.049023131312 -157.717758222055 -6.041277347210 -53.578013829180 -6.035283791202 -53.666048738464 -30.973532148468 -154.190627781219
0.816864000000 -40.505629609843 -158.704663657034 -6.049554624994 -54.363444226485 -6.035312465922 -54.464340381766 -30.375966663325 -159.270271078896
0.828862000000 -39.139917679494 -161.292078377936 -6.060972203065 -55.119504382935 -6.039697020347 -55.245494582624 -29.928675961427 -164.976181711703
0.840860000000 -38.018956528978 -164.641273712330 -6.066025031393 -55.862683372027 -6.044951575645 -56.032754039496 -29.605481058173 -170.749793169522
0.852858000000 -37.014300625261 -168.285989192056 -6.064770679815 -56.555565957408 -6.046175028919 -56.783116878878 -29.409236504763 -176.099497535648
0.864856000000 -36.159743920007 -171.889999998184 -6.062189097964 -57.292957230004 -6.051384282629 -57.554527357329 -29.269046785268 178.471541852715
0.876854000000 -35.345746837762 -175.583898879316 -6.059495709034 -58.112261597201 -6.054240669125 -58.315818237430 -29.224464884840 173.063576445397
0.888852000000 -34.587207676863 -179.709895304257 -6.052974899477 -58.897379974614 -6.052190476338 -59.088506364567 -29.328503024108 167.915016527448
0.900850000000 -33.950137335440 175.557643530774 -6.052214837180 -59.694527670656 -6.053581957810 -59.919041899297 -29.505182932440 162.988362015719
0.912848000000 -33.421407301382 170.749786650753 -6.058637698368 -60.501987350270 -6.058645582721 -60.689082516918 -29.733494385884 157.942076059873
0.924846000000 -32.982220522227 165.892746763463 -6.064942564839 -61.291441267751 -6.063361738480 -61.499427040253 -30.013184074394 153.326253597014
0.936844000000 -32.549676359606 160.867896591696 -6.071610663557 -62.062546742256 -6.067719260668 -62.209849132768 -30.437217086033 148.646313930492
0.948842000000 -32.199663267528 155.531343424441 -6.076807243474 -62.812124793191 -6.068188870648 -62.949206779399 -30.957836359348 144.548347495999
0.960840000000 -31.943413135447 149.597155916975 -6.070848244494 -63.490070060907 -6.067910055145 -63.656899949815 -31.608997036014 140.680344522186
0.972838000000 -31.719953563799 143.636027576235 -6.058798880430 -64.276790659152 -6.063948659174 -64.383835511549 -32.339018960309 137.052198399271
0.984836000000 -31.633313932630 137.823593893533 -6.048279936123 -65.030728596011 -6.057185906058 -65.147452552294 -33.219226985197 134.424851336800
0.996834000000 -31.615179959037 131.358757533262 -6.045009203314 -65.798862237533 -6.048475272772 -65.906658042689 -34.221589516333 132.130967697928
1.008832000000 -31.679590440505 125.271983793701 -6.040486419836 -66.606203229469 -6.036382688551 -66.688103363715 -35.280883109659 130.822012893629
1.020830000000 -31.807134342329 118.967408433036 -6.043374596249 -67.408340885823 -6.032376003445 -67.527887712698 -36.634764669200 131.269414073739
1.032828000000 -32.059415495466 112.289316169053 -6.041338693804 -68.241080848383 -6.028033519144 -68.461321116906 -38.089219176897 135.069633965885
1.044826000000 -32.468445513752 105.918631231871 -6.042620186416 -69.023977970202 -6.025414526325 -69.296639463008 -39.499441552234 143.430034600074
1.056824000000 -33.050830820758 99.755344949906 -6.046654163605 -69.822260119551 -6.039146466758 -70.131188085403 -40.516699784824 157.045347127920
1.068822000000 -33.765493834526 93.259286033260 -6.044120408687 -70.625132139387 -6.050756539303 -70.915997378732 -40.559099444826 172.671698616762
1.080820000000 -34.753363436694 86.424747066856 -6.047446930281 -71.412909293796 -6.066124860723 -71.708636351014 -39.344408372433 -173.567003609134
1.092818000000 -35.852933323034 80.474851703758 -6.046857635355 -72.242975307597 -6.070031147248 -72.397243644184 -37.762524508886 -166.639842046244
1.104816000000 -37.196058889856 74.390571702495 -6.048459239796 -73.017978269124 -6.070771702977 -73.103103355284 -36.353815102707 -164.439385600651
1.116814000000 -38.909239180674 69.139494038924 -6.051627898765 -73.852046950949 -6.067531069173 -73.841750233729 -35.181620412544 -164.843032805512
1.128812000000 -41.143478572497 63.384210704934 -6.053029456570 -74.661702844525 -6.061187640375 -74.617247576114 -34.175661814619 -166.364421558244
1.140810000000 -44.367924514583 58.991046684544 -6.065709419474 -75.491804761987 -6.059599412280 -75.440089159668 -33.243278590849 -169.061072705289
1.152808000000 -49.948507811834 56.553347036247 -6.076774180180 -76.274389194847 -6.057417876288 -76.264721634449 -32.458341167283 -171.773966174526
1.164806000000 -67.708987003781 112.780430722191 -6.083262794645 -77.029818298909 -6.061233619162 -77.075667488394 -31.855640069351 -175.031024956687
1.176804000000 -50.230423789179 -150.237649585183 -6.086199365429 -77.741646575462 -6.068692142747 -77.910212868280 -31.441919529170 -178.728290619169
1.188802000000 -43.987855001917 -153.876012619261 -6.085337824502 -78.450079508892 -6.078648952695 -78.717619249955 -31.154878263206 177.420158657347
1.200800000000 -40.472619848359 -158.976294640806 -6.090479113335 -79.185238297941 -6.083418554181 -79.474342363439 -30.998405920489 173.870727038175
1.212798000000 -37.952790484269 -165.421223363827 -6.090347398301 -79.947939649124 -6.084079537192 -80.176666668856 -30.870592691849 170.334485228433
1.224796000000 -35.985690343937 -171.710027109072 -6.094076215723 -80.687313323194 -6.083870851876 -80.916557419806 -30.724175309184 166.592890610348
1.236794000000 -34.384694973213 -178.741545887950 -6.094941366314 -81.538023764477 -6.080478772915 -81.646596833997 -30.627939959892 162.644536173378
1.248792000000 -33.093161354351 174.427178635550 -6.091871531029 -82.311750773508 -6.079238865186 -82.413756098072 -30.564778065713 158.532440883487
1.260790000000 -31.999087005775 167.076971072639 -6.093376643924 -83.076513381626 -6.081202229852 -83.181857266620 -30.582473729774 154.609328625787
1.272788000000 -31.049154823506 159.837520818276 -6.093327148586 -83.829919269314 -6.087381007300 -83.958061112502 -30.698587711646 150.712531854292
1.284786000000 -30.378582870198 152.709269467602 -6.091502738458 -84.521878383577 -6.091463703578 -84.713542412825 -30.847461795645 146.803899064010
1.296784000000 -29.790620659379 145.403843851642 -6.091362684523 -85.195398101360 -6.090297387957 -85.424356346229 -31.134743147839 143.047616226441
1.308782000000 -29.293999344269 138.001526426013 -6.081065830408 -85.979651898192 -6.076796503533 -86.217748789552 -31.521934055918 139.872666814718
1.320780000000 -28.914180080969 130.239186790822 -6.071293693441 -86.706936197392 -6.062235147651 -86.946042878527 -31.991740310667 137.036585799006
1.332778000000 -28.634549258146 122.562124597765 -6.057084836605 -87.511493587330 -6.035799526175 -87.846449072686 -32.499274531027 135.056273848993
1.344776000000 -28.475505325501 114.615139162538 -6.042407498429 -88.345072376961 -6.021805753666 -88.707197660196 -32.975384258587 133.292355885900
1.356774000000 -28.477278412195 106.757701254008 -6.041451499308 -89.277287487627 -6.016640127931 -89.592623497624 -33.697826073075 131.367407820112
1.368772000000 -28.577278336750 98.802091326477 -6.039504733727 -90.163467916475 -6.021149901037 -90.468864173878 -34.564221497689 130.828459476017
1.380770000000 -28.767687990359 91.070884164463 -6.047670495301 -90.994677701724 -6.032527067912 -91.341916298208 -35.478093262077 132.136965479547
1.392768000000 -29.059489415082 83.376030714052 -6.057484357316 -91.866942867218 -6.059495258315 -92.175265127883 -36.286564620384 136.849859169824
1.404766000000 -29.481426095999 75.430764268762 -6.063740021986 -92.615236531124 -6.083082805331 -92.892628114275 -36.677703537096 141.895348920319
1.416764000000 -29.955551764766 67.431690655393 -6.074473312948 -93.406470196665 -6.104724466573 -93.569046323348 -36.787524771868 147.291073753805
1.428762000000 -30.493800373794 59.276756017759 -6.080805786569 -94.161849020497 -6.117348958249 -94.250942996902 -36.568739402822 152.319529055818
1.440760000000 -31.122796211029 50.137863106487 -6.087549720393 -94.976494977483 -6.115178400227 -94.923642762978 -36.282910643714 155.438479250823
1.452758000000 -31.913576988134 40.208655971940 -6.102277187440 -95.805906567530 -6.113364604089 -95.627227105250 -35.964994078840 157.719956900010
1.464756000000 -32.985263279424 28.419260620039 -6.107788890958 -96.557657159110 -6.089812118954 -96.426576873043 -35.591395471029 159.829077626668
1.476754000000 -34.221173775663 15.207557745778 -6.106859517282 -97.251060613262 -6.073361088460 -97.254157844268 -35.319021171113 161.890190088363
1.488752000000 -35.542940273760 0.810331757833 -6.118055106104 -98.044017293224 -6.068008781979 -98.216023537562 -34.877068078894 163.008636450558
1.500750000000 -36.945834429784 -17.273514250931 -6.131624032004 -98.775788372872 -6.078630020219 -99.051929776197 -34.477875883973 163.449831580540
1.512748000000 -38.155103249159 -39.805261153521 -6.123513956722 -99.446968215692 -6.085788030319 -99.840407538652 -34.023669916598 162.567573014689
1.524746000000 -38.650151166253 -66.911447762078 -6.117640821264 -100.220984748716 -6.096266482342 -100.603033760635 -33.662481480756 161.471656319738
1.536744000000 -38.096893249780 -95.264924969982 -6.114501029666 -100.945990033534 -6.102931026685 -101.301898990781 -33.295924020769 160.271857582292
1.548742000000 -36.617636060550 -119.088778476623 -6.107887195100 -101.742447951550 -6.100918569350 -101.983175209517 -32.983613236182 158.986184177692
1.560740000000 -35.023508199255 -138.044533667388 -6.100319843696 -102.530090615377 -6.096062304139 -102.699881928004 -32.664468482076 157.312221782116
1.572738000000 -33.497154510056 -153.903416698387 -6.099899968246 -103.350107708358 -6.092016082271 -103.478237270707 -32.332688238644 155.359831603176
1.584736000000 -32.151211096178 -167.538636805998 -6.102794752401 -104.112398194382 -6.085945608782 -104.303907975105 -32.087270521762 153.003827730993
