# GHZ S DB R 50
0.303000000000 -0.572872321984 -113.689402692850 -57.085448133825 118.018307117219 -57.703366944008 117.342353386970 -0.469350927649 -110.466118602631
0.303200000000 -0.572527790989 -113.963923071843 -57.113434731806 116.784319875074 -57.770715275390 116.103377114500 -0.471871161581 -110.725244547487
0.303400000000 -0.573012250581 -114.255447068315 -57.159127648259 116.402446782471 -57.770125728020 115.603669613703 -0.468868631894 -111.005262458486
0.303600000000 -0.574485286431 -114.534515882821 -57.081203714874 117.077107200548 -57.720364483959 116.958988443817 -0.469782974550 -111.295895489197
0.303800000000 -0.577185955005 -114.809420345659 -56.887148380313 116.682526232094 -57.479115724940 116.097561877111 -0.473756666634 -111.552351857990
0.304000000000 -0.579329002371 -115.064981961910 -56.828526887838 114.128636728637 -57.469574048202 113.700623966861 -0.474183793266 -111.776076849574
0.304200000000 -0.578474269813 -115.317194685805 -57.121898261054 112.218377333677 -57.754303969440 112.066162746752 -0.468378325091 -112.042517168030
0.304400000000 -0.577218112370 -115.599924571967 -57.403547598833 113.632645229808 -58.070606490145 112.972237188078 -0.465760768645 -112.321185763334
0.304600000000 -0.576833535347 -115.874890698787 -57.378388315001 115.576730776259 -58.060407937069 114.836549036672 -0.464941496821 -112.591919068748
0.304800000000 -0.577332728425 -116.135873789282 -57.262791534260 115.471151595369 -57.918453823086 114.928002183399 -0.464113414404 -112.874886310905
0.305000000000 -0.575549027228 -116.416485536271 -57.294533964712 115.235778559684 -57.906757085799 114.463899600261 -0.463195395899 -113.135955297915
0.305200000000 -0.575423546801 -116.695675332914 -57.390140841108 115.147131477434 -58.069996297703 113.853879352506 -0.461290463937 -113.433413991798
0.305400000000 -0.574804459000 -116.979435312161 -57.308570923488 115.899559711244 -57.988919190168 114.663606659740 -0.461422513909 -113.710514151327
0.305600000000 -0.576666333001 -117.254223925441 -57.345743422074 116.397950708285 -57.985365067858 115.773369628845 -0.461136238326 -113.984454163286
0.305800000000 -0.577044153559 -117.522535064521 -57.252538811270 116.453940607330 -57.837857794426 115.786934177378 -0.462243008887 -114.254497104137
0.306000000000 -0.576314389702 -117.792784546355 -57.119550735362 116.857433224609 -57.700772084515 116.284495444293 -0.461929129811 -114.532572838670
0.306200000000 -0.575778717236 -118.070694452086 -57.094096920614 115.953746038568 -57.692895159336 115.144253845299 -0.461241131530 -114.816542352373
0.306400000000 -0.575807226491 -118.358302372275 -57.031392444558 115.831885021307 -57.735032477915 115.320040234462 -0.463693015815 -115.097986205789
0.306600000000 -0.575130073747 -118.646173628829 -57.026038993435 115.437564617724 -57.643816082038 115.043254419104 -0.464145062052 -115.384677112525
0.306800000000 -0.575336852042 -118.919958710496 -57.042013423590 114.376672897339 -57.669083786014 113.539331469822 -0.464959485064 -115.658739076135
0.307000000000 -0.575417410965 -119.202907543917 -57.168978050881 114.977438171889 -57.746036024563 114.043178224102 -0.464056127709 -115.960883425375
0.307200000000 -0.577986800312 -119.432854743982 -57.080934544133 115.089323879069 -57.619828517433 114.551972704981 -0.470019805728 -116.162307581173
0.307400000000 -0.576140472356 -119.754326312843 -56.994847378152 113.864121871635 -57.581711627066 113.025134546534 -0.474675982799 -116.464657263586
0.307600000000 -0.575443757768 -120.021233454845 -57.105191866851 112.881615629624 -57.675618423163 111.749565532723 -0.472432144128 -116.695869223966
0.307800000000 -0.576236839976 -120.329551722247 -57.226501863087 112.623711840451 -57.828936571930 111.746131965373 -0.471014678105 -116.959274103020
0.308000000000 -0.577471163846 -120.580283529481 -57.284878036727 113.403526764701 -57.839622911428 112.558675758774 -0.470357431353 -117.218984312708
0.308200000000 -0.578524153116 -120.866244505897 -57.208418013223 113.295810170925 -57.776427005927 112.698610548112 -0.469419685356 -117.515210973304
0.308400000000 -0.579836861966 -121.161503912307 -57.388674229535 113.697984997589 -57.943529376426 112.908977643861 -0.472016682418 -117.837884780852
0.308600000000 -0.580276856788 -121.421374279083 -57.576179093153 112.964079030083 -58.100421481615 112.257780157578 -0.473816562290 -118.076940405137
0.308800000000 -0.590765012018 -121.706557228126 -57.312506283505 115.442251567508 -57.873190698406 115.342201441214 -0.487959727813 -118.401116077757
0.309000000000 -0.583930042447 -121.990300525289 -57.249131216310 114.819465592404 -57.804288270069 114.060417351163 -0.496857633308 -118.683207863724
0.309200000000 -0.588039438873 -122.252309146549 -57.093424463412 114.264409648056 -57.660387691971 113.603463842381 -0.490665811945 -118.790950764352
0.309400000000 -0.584918135694 -122.493247963759 -56.903177287120 114.150456780231 -57.424332666748 113.835444430216 -0.480208494493 -119.026086882991
0.309600000000 -0.583902907065 -122.773521837281 -57.132053476203 113.536037036696 -57.651498035178 112.758475087287 -0.477502889768 -119.321158748351
0.309800000000 -0.585463237922 -123.062303705652 -57.268208987962 113.292673901438 -57.693880911864 112.693258890365 -0.473951226857 -119.614635036505
0.310000000000 -0.584122606730 -123.340469892228 -57.230322951511 114.522338727415 -57.750661753791 113.575690467653 -0.474100745993 -119.890594863965
0.310200000000 -0.584098346304 -123.606770508945 -57.181977671518 113.225556426161 -57.632739055080 112.296309901049 -0.475364860216 -120.170283689002
0.310400000000 -0.581498878623 -123.890857486824 -57.368263789720 114.827141160089 -57.866002756986 114.284992661214 -0.472562027505 -120.458626221345
0.310600000000 -0.582616216025 -124.179083123143 -57.051292265883 114.653591744010 -57.526865720459 113.849540935379 -0.477427051251 -120.769565474526
0.310800000000 -0.583427561958 -124.458258332982 -57.041042881246 113.225491528430 -57.548162675092 112.310245617729 -0.478959571007 -120.975629566974
0.311000000000 -0.582659190720 -124.725598397602 -56.926308570889 112.921108140927 -57.409556248507 112.042613288995 -0.474514161197 -121.257841555441
0.311200000000 -0.581563385138 -125.008583788013 -57.101997207981 112.339320890279 -57.542134169460 111.283489944060 -0.472512798191 -121.562021042141
0.311400000000 -0.582011960668 -125.300393674768 -57.104552650483 111.651717087510 -57.520031227421 110.650117312457 -0.473092242580 -121.845729300531
0.311600000000 -0.581272568540 -125.565817834308 -57.213302188189 111.115457958094 -57.625854389769 110.465277749164 -0.476631563470 -122.118113097071
0.311800000000 -0.582236169971 -125.859839195427 -57.296358414810 112.079748042630 -57.675378572695 111.213812456641 -0.476710665194 -122.382166397250
0.312000000000 -0.581996058828 -126.136706680230 -57.326383572006 111.602836829616 -57.620942127724 110.800973239907 -0.474819601219 -122.664651683350
0.312200000000 -0.581727006929 -126.412655880996 -57.284505087482 111.537841240175 -57.713621328490 110.821219275427 -0.476635356628 -122.944068130967
0.312400000000 -0.581733338919 -126.700976353597 -57.238571373932 111.065042632587 -57.618615642666 110.177273328755 -0.478901102027 -123.217069701444
0.312600000000 -0.582230644278 -126.992763151089 -57.323948415686 111.339027500369 -57.710450626768 110.294630257373 -0.477920400959 -123.516543623991
0.312800000000 -0.583632740585 -127.268728039369 -57.391715183960 111.268307950186 -57.797110316924 110.162778943331 -0.480107360631 -123.807457515548
0.313000000000 -0.584218731986 -127.550716523026 -57.371374637310 110.575189865473 -57.754016156990 109.623038903901 -0.482063972134 -124.088253264896
0.313200000000 -0.584982879007 -127.804376842678 -57.561113336828 111.605230538107 -57.945881069128 110.850524238127 -0.488319726861 -124.358024137661
0.313400000000 -0.585122383845 -128.078090513965 -57.507948678715 111.762564402823 -57.874099334986 110.436096018552 -0.485047545206 -124.602433659546
0.313600000000 -0.584968160725 -128.361491717341 -57.492071416509 113.034306680989 -57.892425427762 111.732613863709 -0.485804277467 -124.874850868077
0.313800000000 -0.584642817611 -128.648120191800 -57.423211659915 112.849639016069 -57.742508705579 111.735582169793 -0.484290026326 -125.185400122631
0.314000000000 -0.586238263928 -128.936614178389 -57.307915074287 113.138260504656 -57.646856970472 112.048289263963 -0.496213312012 -125.446053130473
0.314200000000 -0.587839431377 -129.190830570284 -57.318563380855 111.995917959289 -57.744711691328 111.096567541547 -0.494378787804 -125.661590158467
0.314400000000 -0.588440451050 -129.476939261629 -57.125593601088 111.612672386168 -57.521494745181 110.580566058293 -0.494654075170 -125.934383839039
0.314600000000 -0.590423783237 -129.738865016657 -57.222610927232 111.058513127643 -57.643935829948 110.047622721371 -0.490555616139 -126.163040424731
0.314800000000 -0.591544140362 -130.014923984379 -57.311936738165 110.983199826293 -57.663432940357 110.094034834612 -0.492343662193 -126.432884749037
0.315000000000 -0.585755575209 -130.549929735235 -57.239699619111 112.192152470234 -57.648934227375 111.059125075860 -0.486421759477 -126.704229877991
0.315200000000 -0.583210860348 -130.797649284751 -57.117469550988 111.783435150880 -57.518189491198 110.607390800711 -0.484792800587 -126.988937705032
0.315400000000 -0.581592807208 -131.084477141157 -57.093210040735 111.119469319221 -57.510806547794 109.972576938229 -0.482725462813 -127.288862455073
0.315600000000 -0.581493107265 -131.382531576268 -57.178554072408 110.734913359692 -57.585166021496 109.472511550984 -0.486244454255 -127.597160871393
0.315800000000 -0.582460231380 -131.650876863775 -57.356964222282 111.786748072765 -57.785339125782 110.368134429972 -0.495202205269 -127.829899846212
0.316000000000 -0.582863976728 -131.932127179344 -57.065082919172 112.884296343135 -57.507022235863 111.801695795750 -0.491648870275 -128.033131168225
0.316200000000 -0.583057051734 -132.206791184353 -56.913540068394 111.050247749834 -57.340444225696 109.823450183953 -0.486651274320 -128.281301545284
0.316400000000 -0.581714757393 -132.459587285683 -56.934020380419 109.631455446136 -57.353250198446 108.418138704859 -0.477832119268 -128.542964726465
0.316600000000 -0.582509090099 -132.735784316217 -57.181881094996 109.395572053853 -57.505756563098 108.258594780960 -0.474615730908 -128.831789238737
0.316800000000 -0.581674436574 -133.003004542046 -57.219720032612 110.591059242061 -57.586705915322 109.071970626903 -0.473856707032 -129.131831013738
0.317000000000 -0.581337770705 -133.281740250516 -57.277421567427 110.736579229101 -57.709896494250 109.312863545713 -0.474711256170 -129.426264832450
0.317200000000 -0.580474643434 -133.555960832080 -57.271613107860 110.624133282502 -57.642355689127 109.601002981621 -0.473442555096 -129.710596258142
0.317400000000 -0.580020651475 -133.844898907608 -57.206918974840 111.393802014814 -57.615856566931 109.771220636908 -0.473126523075 -129.999564946815
0.317600000000 -0.580597043692 -134.120025817177 -57.264570351883 111.271609374231 -57.656353753232 109.863895152689 -0.474650866414 -130.272070546812
0.317800000000 -0.580680727397 -134.391986165754 -57.226535586309 111.642475278412 -57.665300253804 110.674876305118 -0.473818824079 -130.560890519686
0.318000000000 -0.580901330711 -134.663418959071 -57.183323385886 111.377567315844 -57.581621084822 110.419911555463 -0.474586422674 -130.847423734327
0.318200000000 -0.582318758938 -134.946146499892 -57.147624908595 112.039017054038 -57.562727599118 110.807909250372 -0.477310564067 -131.133519722357
0.318400000000 -0.583094985923 -135.219645836769 -57.079149152923 112.243271952810 -57.590127750617 111.072505181683 -0.486387275718 -131.418225060464
0.318600000000 -0.583569854785 -135.494160816775 -57.054670615342 111.304140536799 -57.475699571544 109.964163733890 -0.486229288539 -131.637012308347
0.318800000000 -0.584525337740 -135.777973878462 -57.280556577490 111.561641354259 -57.648714459687 109.952569821607 -0.483448582184 -131.888796709601
0.319000000000 -0.585119896096 -136.038655082041 -57.238094841330 113.112971973560 -57.649229510111 111.806664661490 -0.481577796668 -132.194597462143
0.319200000000 -0.586280002936 -136.321094397742 -56.856870038876 113.492434026146 -57.309389528952 111.893322237712 -0.484604428798 -132.471037244325
0.319400000000 -0.586666362263 -136.585145316836 -56.712872151450 111.885441153737 -57.168724493159 110.339553033793 -0.482964155979 -132.740620395596
0.319600000000 -0.587016739009 -136.850579619080 -56.822827898486 110.749890551813 -57.289631466975 109.130021940169 -0.489216805179 -133.006876929567
0.319800000000 -0.588473148250 -137.141407185073 -56.809226338468 110.978113178308 -57.208703063019 109.187169950411 -0.488274374414 -133.296852641214
0.320000000000 -0.589179047429 -137.411872115023 -56.773391233486 109.406276611921 -57.439053978165 107.301734117778 -0.496270465055 -133.585256178199
0.320200000000 -0.588956659992 -137.647657315668 -57.129654459212 108.513383318059 -57.572111495406 107.060408781256 -0.498684032968 -133.740454760499
0.320400000000 -0.588578083814 -137.910842637846 -57.332911367106 109.556268432274 -57.754058949068 107.942098522548 -0.490205973123 -134.044477325903
0.320600000000 -0.587683914236 -138.186165062671 -57.223446912206 111.126043469605 -57.638089250002 109.256905941962 -0.488083767841 -134.322961357975
0.320800000000 -0.588056793315 -138.486388237018 -57.129733139339 110.509170822784 -57.526522225669 108.952671485901 -0.493325261521 -134.631502193890
0.321000000000 -0.589524447793 -138.751289983373 -56.964755887954 111.027793223521 -57.410560782805 109.245785492267 -0.500803263648 -134.807280565184
0.321200000000 -0.588681813195 -139.023381912560 -57.054509568282 109.452495690979 -57.529552330164 107.231059722131 -0.491481584374 -135.077073962167
0.321400000000 -0.589654386609 -139.276367068481 -57.145812362115 109.441330441124 -57.633096551403 107.598499956308 -0.488765495858 -135.314347354848
0.321600000000 -0.589640354211 -139.547742033437 -57.270724721427 109.821295153103 -57.718443161634 107.821381441615 -0.485874893083 -135.609583212554
0.321800000000 -0.589462761123 -139.808683185739 -57.266278534862 111.188542087601 -57.764210491813 109.289383107572 -0.485046898500 -135.895680203873
0.322000000000 -0.587982422498 -140.112715514797 -57.150799135837 111.263473249929 -57.554569323518 109.169158093237 -0.481708548559 -136.193545939923
0.322200000000 -0.588930595322 -140.380329009103 -57.221017120254 111.500430220864 -57.625377411078 109.266152072858 -0.484625873428 -136.464159502017
0.322400000000 -0.588106320995 -140.664985810876 -57.101848890437 111.904095621348 -57.505802574032 109.874892325852 -0.484524424705 -136.767591154728
0.322600000000 -0.588575426821 -140.914775262171 -57.020909509346 111.496968754611 -57.428754331271 109.274150085145 -0.491869704616 -137.009394347359
0.322800000000 -0.589128658124 -141.204062772266 -56.902315137180 110.537065954637 -57.285411713562 108.491072965201 -0.489318061154 -137.246253229724
0.323000000000 -0.590381514312 -141.491123973371 -57.036539108473 109.256525254651 -57.436071720022 107.245534971635 -0.486730396292 -137.553089557300
0.323200000000 -0.591587622625 -141.762455667532 -57.181201861705 109.569537390401 -57.625629018112 107.148232949122 -0.487064272361 -137.827432210992
0.323400000000 -0.592007889435 -142.030583232118 -57.307090338321 109.980228395955 -57.770406363015 108.230157075776 -0.489062677894 -138.111095858512
0.323600000000 -0.591849813289 -142.306831602766 -57.265539691563 110.839617980607 -57.699192235900 108.730579202591 -0.490434791681 -138.378844162512
0.323800000000 -0.592402024235 -142.585664177914 -57.187522214251 110.633646536086 -57.610489093058 108.999423799586 -0.490687398746 -138.665974844998
0.324000000000 -0.592647110105 -142.871425184287 -57.187168083886 110.643818427743 -57.581208632561 108.792957957613 -0.490323161421 -138.932523567884
0.324200000000 -0.593997116287 -143.135917416057 -57.170076722664 110.396652321185 -57.463683607354 108.405632070991 -0.488969329191 -139.226492839659
0.324400000000 -0.595575054813 -143.398859799268 -57.234814354463 109.930826371240 -57.579850893181 108.306577061424 -0.489850040938 -139.518584675627
0.324600000000 -0.596291557121 -143.672449892421 -57.238174017022 110.950278770518 -57.621277171574 109.173527957030 -0.494702263506 -139.828225740934
0.324800000000 -0.598632931858 -143.935178370546 -57.257553431884 111.997094675229 -57.657772169012 110.494270325657 -0.501730749714 -140.074246791113
0.325000000000 -0.598885009138 -144.205622316056 -57.066570216181 111.962328066422 -57.458761250675 110.356471280586 -0.503440559548 -140.370406546334
0.325200000000 -0.599550135534 -144.480893756762 -57.023524075031 111.532671617804 -57.422459717630 110.343829049869 -0.507757606334 -140.608886520930
0.325400000000 -0.598176290990 -144.755675223634 -56.910311037375 112.152452530199 -57.261862636017 110.520847800995 -0.505464956807 -140.796905306946
0.325600000000 -0.598516972203 -145.028876630039 -56.746504783430 111.262111715739 -57.066462194559 109.688537953175 -0.500894550557 -141.084938945817
0.325800000000 -0.597550620840 -145.308001222083 -56.751839774263 109.573795649012 -57.083856412268 108.172483684425 -0.499241952407 -141.341948590294
0.326000000000 -0.597044547505 -145.604680935699 -57.019280579999 108.750901625080 -57.378402931611 107.526068604324 -0.494693917734 -141.616247328876
0.326200000000 -0.596340554698 -145.877120230547 -56.907190003873 109.159431798322 -57.302024844582 107.446918364630 -0.493179968800 -141.900904660900
0.326400000000 -0.596694629424 -146.168050015142 -56.965932728355 108.822617276866 -57.355721789327 106.821441894670 -0.498106184360 -142.204722976237
0.326600000000 -0.597129915982 -146.429040538810 -56.995131876497 109.335667585806 -57.404706424192 107.690606738391 -0.498982790057 -142.431393856991
0.326800000000 -0.596699986742 -146.715856499648 -56.996540097920 108.287692532206 -57.420315371170 106.055056975018 -0.500485129512 -142.719832317316
0.327000000000 -0.596465743378 -146.997237790216 -57.332858930365 108.618973777957 -57.609857632982 106.630136089376 -0.504558292650 -142.968231751586
0.327200000000 -0.595783068591 -147.281814050338 -57.321162006221 110.130204243123 -57.668263413838 108.018651717992 -0.494944468336 -143.197854691551
0.327400000000 -0.595510473242 -147.563258137766 -57.216278282084 111.020763401978 -57.641663897298 108.508506189585 -0.493473772786 -143.484304508587
0.327600000000 -0.594747417562 -147.847900940304 -57.161802221263 112.030213846317 -57.554992509134 110.321955532789 -0.491389180686 -143.754634348592
0.327800000000 -0.595630636366 -148.121044349492 -56.996561637476 112.416705085170 -57.394292270359 110.555933599262 -0.489295261057 -144.037561619598
0.328000000000 -0.596721839692 -148.391588795972 -56.811389413545 111.810757739915 -57.230807337360 110.475998813868 -0.488315163491 -144.283071313281
0.328200000000 -0.595931328138 -148.683397848372 -56.738410896421 111.854195537186 -57.072799590707 110.196986152313 -0.488294469207 -144.575192865913
0.328400000000 -0.595594007001 -148.967706302426 -56.663037862731 110.507646743558 -57.035862032136 109.371461091584 -0.485261809419 -144.871099582414
0.328600000000 -0.596356982883 -149.249216112926 -56.630324962374 109.755679805912 -56.978336496945 107.815245219349 -0.485656347215 -145.138057200905
0.328800000000 -0.596695757630 -149.546668343181 -56.702906931245 109.602112010934 -57.082700819486 107.798595566933 -0.482433383787 -145.422532359637
0.329000000000 -0.595583354114 -149.815812617121 -56.661241307872 109.170701719210 -57.065845343664 107.384045424335 -0.483924278122 -145.701110314584
0.329200000000 -0.597754413801 -150.123180575458 -56.817964100209 108.478383705111 -57.183354138516 106.782239261976 -0.483159002568 -145.970347239395
