# GHZ S RI R 50
0.001000000000 -0.001666425262 0.002822235459 0.001938006491 0.000492581283 -0.004946168978 -0.000886733586 0.000021954016 0.001528474968
0.012998000000 0.000288961484 -0.000086142507 0.000007027970 0.000003809229 0.000012755230 -0.000046914996 -0.000180708972 0.000009445067
0.024996000000 0.000289804913 -0.000063061350 0.000002051725 0.000002007308 0.000023978608 -0.000033685850 -0.000172393047 -0.000005503836
0.036994000000 0.000273974641 -0.000128731976 -0.000002834754 0.000003159887 0.000016247948 -0.000006021934 -0.000180988354 0.000004756138
0.048992000000 0.000303407491 -0.000159702642 0.000001307306 0.000001748833 0.000041975400 -0.000008443633 -0.000180975796 0.000003081637
0.060990000000 0.000260911474 -0.000214925298 0.000001187911 0.000004718767 0.000035586654 -0.000018258750 -0.000180931325 0.000007733906
0.072988000000 0.000245981006 -0.000262961752 -0.000002992045 0.000000673831 0.000050885588 -0.000019276878 -0.000196339373 0.000011805878
0.084986000000 0.000261979614 -0.000292314275 -0.000003200109 -0.000002759001 0.000035025871 -0.000009321810 -0.000178421484 0.000002909866
0.096984000000 0.000234967010 -0.000325104746 -0.000000806716 -0.000004132726 0.000039057762 -0.000022118869 -0.000198032503 -0.000001996736
0.108982000000 0.000259286520 -0.000355441560 0.000002546521 0.000002612599 0.000049960621 -0.000012622962 -0.000213112435 -0.000002003151
0.120980000000 0.000243511487 -0.000424808299 0.000000905720 -0.000003129990 0.000043231554 0.000040322786 -0.000175498717 -0.000007752064
0.132978000000 0.000240848807 -0.000441702054 -0.000001997721 0.000005599213 0.000047071873 0.000022199285 -0.000197576112 0.000014065761
0.144976000000 0.000262915884 -0.000489144528 -0.000003671594 0.000002182120 0.000037024969 0.000034933473 -0.000179783994 0.000019268442
0.156974000000 0.000238485183 -0.000505327713 0.000003135319 0.000001608759 0.000032256274 0.000026775095 -0.000181873795 -0.000009139963
0.168972000000 0.000197464644 -0.000532724953 0.000002551121 -0.000000662225 0.000021181908 0.000053381526 -0.000203624499 -0.000021137164
0.180970000000 0.000200497525 -0.000603237539 -0.000003639004 0.000000383804 0.000038329072 0.000022969369 -0.000169927574 -0.000019126315
0.192968000000 0.000215400287 -0.000656949473 -0.000002717918 -0.000004591447 0.000009825369 0.000051971892 -0.000216078071 -0.000003661586
0.204966000000 0.000178965551 -0.000682460319 0.000001314339 -0.000003666063 -0.000006452098 0.000057442812 -0.000205643097 -0.000002576151
0.216964000000 0.000215119479 -0.000729940773 -0.000004032099 0.000001308994 0.000024060493 0.000048107177 -0.000196868321 -0.000025128882
0.228962000000 0.000229614307 -0.000714795373 -0.000002024883 -0.000001769775 0.000003233545 0.000043784254 -0.000206405108 -0.000000694506
0.240960000000 0.000228985038 -0.000804743264 -0.000003956985 0.000003095338 -0.000025541833 0.000043088123 -0.000181032156 -0.000008018239
0.252958000000 0.000216150715 -0.000793866173 -0.000002918061 -0.000001573407 -0.000003089147 0.000042034095 -0.000207904290 -0.000006437263
0.264956000000 0.000143182056 -0.000873262412 0.000003239245 -0.000003238626 -0.000012243328 0.000051986084 -0.000195924702 -0.000008447356
0.276954000000 0.000187984508 -0.000890935597 -0.000002181237 -0.000002676904 -0.000040081544 0.000032986893 -0.000194183653 -0.000019308352
0.288952000000 0.000199753122 -0.000986970379 -0.000002693949 0.000001807019 -0.000019372754 0.000049895731 -0.000178651142 -0.000002146137
0.300950000000 0.000178932358 -0.000962674210 -0.000001928936 0.000002311860 -0.000045023633 0.000023807865 -0.000200293565 -0.000018268940
0.312948000000 0.000153914429 -0.000943352410 -0.000002237392 -0.000002898362 -0.000038639100 0.000045294128 -0.000198794995 -0.000000624712
0.324946000000 0.000184666394 -0.001001816476 0.000002317418 -0.000002747042 -0.000057083980 -0.000002909223 -0.000210680548 -0.000013332549
0.336944000000 0.000152449822 -0.001101339119 0.000003238916 -0.000003043476 -0.000045273489 -0.000004701987 -0.000245734787 0.000006172017
0.348942000000 0.000137660929 -0.001095759100 -0.000004116577 0.000000910893 -0.000033372009 0.000009627586 -0.000214585511 0.000000131487
0.360940000000 0.000179660725 -0.001163081848 0.000005463398 -0.000001839662 -0.000049758040 -0.000023453344 -0.000211909588 -0.000021334770
0.372938000000 0.000099216566 -0.001204776345 0.000000367425 0.000003883723 -0.000050440711 -0.000033076743 -0.000183697950 -0.000009440808
0.384936000000 0.000110396126 -0.001190368552 -0.000004511183 -0.000001510921 -0.000052030442 -0.000041971318 -0.000221649607 -0.000007743090
0.396934000000 0.000092432616 -0.001304456382 0.000006195127 0.000000995747 -0.000050438477 -0.000030262918 -0.000199943330 -0.000013475483
0.408932000000 0.000071534072 -0.001318183495 0.000004200811 0.000001206130 -0.000036402344 -0.000034659715 -0.000243771065 -0.000031291842
0.420930000000 0.000147886603 -0.001357300440 0.000000919912 -0.000004646976 -0.000019533172 -0.000038017039 -0.000228574063 -0.000001842519
0.432928000000 0.000000428685 -0.001343911863 0.000000455292 -0.000004851382 -0.000020933741 -0.000037552771 -0.000238952140 0.000001526872
0.444926000000 0.000071803195 -0.001399301109 0.000004708639 -0.000002831006 -0.000024007333 -0.000053436019 -0.000251384918 0.000002904933
0.456924000000 0.000098330092 -0.001434123493 0.000005924204 -0.000000795516 -0.000012754817 -0.000049549402 -0.000168744373 -0.000022046806
0.468922000000 -0.000039951279 -0.001468235510 0.000005024021 0.000000618970 0.000006707408 -0.000057697063 -0.000213640247 -0.000038981223
0.480920000000 0.000085504369 -0.001481952495 -0.000003682050 0.000002379529 -0.000010114691 -0.000052184023 -0.000185232755 -0.000009829858
0.492918000000 0.000011133085 -0.001531395479 0.000001767663 0.000005997051 0.000001081327 -0.000051557090 -0.000148398816 -0.000064624517
0.504916000000 0.000001703372 -0.001578562427 -0.000003836280 -0.000001236316 -0.000000850836 -0.000052322008 -0.000188490609 -0.000023420644
0.516914000000 -0.000022509281 -0.001610921230 -0.000001237537 0.000005651060 0.000036961264 -0.000043863380 -0.000207381032 -0.000023578703
0.528912000000 -0.000028807541 -0.001625830075 -0.000002671124 0.000003345091 0.000064043947 -0.000044337459 -0.000204553478 -0.000006886154
0.540910000000 -0.000032825523 -0.001613245462 -0.000003691777 0.000002828843 0.000031158928 -0.000050555085 -0.000181756695 0.000033067627
0.552908000000 -0.000013445084 -0.001714073820 0.000004276160 -0.000001012509 0.000034983532 -0.000030891850 -0.000145346014 -0.000132578585
0.564906000000 0.000036734287 -0.001721881214 0.000001105023 0.000002698242 0.000032678370 -0.000035350749 -0.000184499688 -0.000054786644
0.576904000000 -0.000092103175 -0.001774604199 -0.000003619796 -0.000002184702 0.000040530125 -0.000030515890 -0.000168710510 -0.000096492782
0.588902000000 0.000072066548 -0.001821523649 -0.000003144270 -0.000005034380 0.000049071259 -0.000006565385 -0.000207335906 -0.000051808260
0.600900000000 -0.000074250318 -0.001860263757 -0.000000686933 -0.000003290025 0.000054080887 0.000030283074 -0.000212250787 -0.000155511341
0.612898000000 -0.000029385523 -0.001812262693 -0.000001752380 0.000004254704 0.000052958592 0.000010719535 -0.000156720373 -0.000045836627
0.624896000000 -0.000081589838 -0.001843622071 0.000003229924 -0.000001245331 0.000056750552 -0.000000058488 -0.000147971485 -0.000028352262
0.636894000000 -0.000027282025 -0.001951912767 0.000002294480 -0.000002839121 0.000048126629 0.000019428686 -0.000225417491 -0.000056136862
0.648892000000 -0.000083665727 -0.002000169829 0.000003233926 -0.000001725144 0.000051458079 0.000005292211 -0.000199329355 -0.000117824340
0.660890000000 -0.000094668030 -0.002052717842 -0.000000747312 -0.000004297750 0.000034106895 0.000046296831 -0.000224346863 -0.000062325948
0.672888000000 -0.000121235258 -0.002013754798 0.000003726641 0.000003615156 0.000040252791 0.000036405712 -0.000137318464 -0.000100238431
0.684886000000 -0.000124918966 -0.002044368302 -0.000003611552 0.000000798160 0.000015615404 0.000045295310 -0.000199875562 -0.000091119116
0.696884000000 -0.000151938511 -0.002106352244 -0.000003937176 -0.000000939468 0.000002948803 0.000055402881 -0.000200043447 -0.000116675190
0.708882000000 -0.000122473546 -0.002162972465 0.000003563239 -0.000003388089 0.000016694299 0.000050767932 -0.000208436308 -0.000090086549
0.720880000000 -0.000158418421 -0.002122735139 0.000000660170 0.000003320569 0.000019003322 0.000051229999 -0.000191332845 -0.000078875106
0.732878000000 -0.000146028731 -0.002170281950 -0.000003807030 -0.000003874161 0.000006847386 0.000042311593 -0.000194763095 -0.000072480994
0.744876000000 -0.000203592019 -0.002184701385 -0.000000496056 0.000004489744 -0.000024319421 0.000042613519 -0.000241153655 -0.000065040476
0.756874000000 -0.000234585634 -0.002179641742 -0.000001236110 -0.000000287733 -0.000005288892 0.000038592640 -0.000149908024 -0.000128665255
0.768872000000 -0.000226504621 -0.002316384343 -0.000002010988 -0.000001112177 -0.000055189405 0.000028694054 -0.000222378119 -0.000150648630
0.780870000000 -0.000316403661 -0.002315907739 -0.000003560450 -0.000003222325 -0.000041879775 0.000041267453 -0.000274420890 -0.000126396553
0.792868000000 -0.000219724519 -0.002276491141 -0.000000427164 -0.000003003407 -0.000054715616 0.000024376224 -0.000187391546 -0.000073792369
0.804866000000 -0.000277224317 -0.002347521484 0.000003510771 0.000000130338 -0.000055890330 0.000006819920 -0.000147919811 -0.000052116360
0.816864000000 -0.000375082571 -0.002359711565 0.000002507650 -0.000000115174 -0.000047862693 0.000006323839 -0.000215658292 -0.000100376987
0.828862000000 -0.000382690574 -0.002422373509 -0.000000262667 -0.000003423179 -0.000054694734 -0.000002217250 -0.000234445019 -0.000144259000
0.840860000000 -0.000248145661 -0.002474967623 0.000000354150 0.000003561547 -0.000058484558 -0.000015128067 -0.000292360492 -0.000281083339
0.852858000000 -0.000301183434 -0.002454562113 0.000003803790 0.000002897237 -0.000046112811 -0.000015345824 -0.000130985383 -0.000031810949
0.864856000000 -0.000379339850 -0.002520636190 0.000002407865 0.000003135501 -0.000046080884 -0.000021920103 -0.000144945021 -0.000047427740
0.876854000000 -0.000419367221 -0.002549685538 0.000002112934 0.000003459626 -0.000032289703 -0.000017869210 -0.000266223098 -0.000097300006
0.888852000000 -0.000396968826 -0.002607505536 -0.000004110800 0.000003317870 -0.000042370382 -0.000035010438 -0.000187736601 -0.000090039553
0.900850000000 -0.000517924957 -0.002701463643 0.000004938903 -0.000000299045 -0.000035828412 -0.000043315515 -0.000193301050 -0.000279034837
0.912848000000 -0.000383415638 -0.002492645290 0.000004127458 -0.000001243815 -0.000009721149 -0.000050042283 -0.000223203489 -0.000219337468
0.924846000000 -0.000346113491 -0.002599297324 -0.000001832271 0.000003884793 -0.000030630999 -0.000035379959 -0.000126672647 -0.000105334970
0.936844000000 -0.000603431661 -0.002614885103 -0.000001898155 -0.000002686671 -0.000021649890 -0.000044233409 -0.000211514052 -0.000125827704
0.948842000000 -0.000261360867 -0.002632386750 -0.000004184510 0.000002888440 -0.000017085020 -0.000054037017 -0.000130380053 -0.000325083063
0.960840000000 -0.000488186139 -0.002767834580 -0.000001840801 -0.000002640080 0.000021256872 -0.000053879132 -0.000325461180 -0.000198795417
0.972838000000 -0.000464663521 -0.002577118576 -0.000001758363 -0.000000878503 -0.000010982234 -0.000059945723 -0.000274963008 -0.000015392918
0.984836000000 -0.000640037179 -0.002872630488 0.000000093485 0.000000604868 0.000020294079 -0.000055596789 -0.000164360608 -0.000207658319
0.996834000000 -0.000408336578 -0.002831342164 -0.000000825201 0.000002506810 0.000020813392 -0.000050236838 -0.000242927403 -0.000184679200
1.008832000000 -0.000637962017 -0.002875979757 0.000000559333 -0.000004945930 0.000051414569 -0.000056010420 -0.000104983752 -0.000198781257
1.020830000000 -0.000475200621 -0.002848390024 0.000003331376 0.000004175891 0.000052234158 -0.000031280189 -0.000193312691 -0.000181569005
1.032828000000 -0.000624294044 -0.002937656827 0.000000160635 -0.000003119197 0.000039916282 -0.000044890618 -0.000179589420 -0.000166208149
1.044826000000 -0.000685404055 -0.002857103478 0.000005262828 0.000004349540 0.000055730790 -0.000014798554 -0.000127070656 -0.000174494271
1.056824000000 -0.000634993019 -0.002910174429 0.000001766532 0.000000456587 0.000058907699 -0.000021797043 -0.000180771414 -0.000227596640
1.068822000000 -0.000664873223 -0.003107786644 -0.000001496985 0.000002991203 0.000057811438 0.000001644331 -0.000249998295 -0.000182431089
1.080820000000 -0.000594823563 -0.003099005902 0.000001036258 -0.000003014970 0.000049520349 0.000005049704 -0.000192064239 -0.000222274830
1.092818000000 -0.000518735091 -0.003075190121 -0.000001468078 0.000003149663 0.000064544052 0.000023904171 -0.000168959203 -0.000256904284
1.104816000000 -0.000809504534 -0.003145783208 -0.000002014414 0.000004807970 0.000045853936 0.000022205861 -0.000209067977 -0.000218941816
1.116814000000 -0.000793152896 -0.003113550832 -0.000001913511 0.000004695760 0.000063088024 0.000050316776 -0.000193471933 -0.000217428664
1.128812000000 -0.000844898401 -0.003191952361 0.000005037612 0.000001204349 0.000058481022 0.000029832516 -0.000213468185 -0.000224966352
1.140810000000 -0.000736201182 -0.003036939539 -0.000005044922 0.000000949113 0.000052583116 0.000019531421 -0.000212685147 -0.000222167204
1.152808000000 -0.000799647067 -0.003286508843 0.000002859109 0.000003692379 0.000038404534 0.000036097066 -0.000183547032 -0.000248220080
1.164806000000 -0.000895805540 -0.003266555024 -0.000005921655 -0.000004395390 0.000028901692 0.000056576162 -0.000233206825 -0.000267164782
1.176804000000 -0.000807091070 -0.003235949902 -0.000000661283 -0.000002284756 0.000002525401 0.000050263367 -0.000177395341 -0.000260363537
1.188802000000 -0.000882277091 -0.003320981748 -0.000003922255 0.000000458897 -0.000009421175 0.000075436343 -0.000302740198 -0.000279339612
1.200800000000 -0.000934033247 -0.003363570897 -0.000003041331 0.000002213656 -0.000021613097 0.000084352148 -0.000193293119 -0.000353545533
1.212798000000 -0.000962146907 -0.003285959363 0.000001381470 -0.000000215087 -0.000003319769 0.000062222105 -0.000230411257 -0.000285648654
1.224796000000 -0.000932472874 -0.003346606158 -0.000005176071 -0.000002866394 0.000000177171 0.000068271933 -0.000256750092 -0.000308094226
1.236794000000 -0.001034747693 -0.003459821921 -0.000001989702 -0.000000623135 -0.000044926306 0.000074380056 -0.000150614840 -0.000307008944
1.248792000000 -0.000885973917 -0.003407537006 0.000003576851 0.000000160122 -0.000049159207 0.000058685782 -0.000221125520 -0.000371460861
1.260790000000 -0.000968504290 -0.003337138332 0.000000175471 0.000007733853 -0.000058386737 0.000052206215 -0.000289601827 -0.000354199874
1.272788000000 -0.000992561458 -0.003423989285 -0.000004014380 -0.000001407059 -0.000070164446 0.000039142124 -0.000206803597 -0.000423356250
1.284786000000 -0.001103782095 -0.003478881205 0.000004712830 -0.000001623580 -0.000040471485 0.000048927675 -0.000271060329 -0.000402225327
1.296784000000 -0.001053272979 -0.003485277528 -0.000003148171 0.000004929960 -0.000067265282 0.000030835159 -0.000347794325 -0.000346893939
1.308782000000 -0.001099856687 -0.003455679165 -0.000001523338 -0.000003001481 -0.000067873189 0.000005177794 -0.000159753399 -0.000288119452
1.320780000000 -0.001172468415 -0.003564453451 0.000000989468 0.000004930772 -0.000064899941 -0.000005316975 -0.000273959507 -0.000341938925
1.332778000000 -0.001329402672 -0.003666409058 -0.000003504859 0.000002451048 -0.000070221417 -0.000020095267 -0.000224505027 -0.000503558433
1.344776000000 -0.001277221483 -0.003715429688 0.000001664904 0.000000828591 -0.000069177564 0.000010660726 -0.000294178521 -0.000456885464
1.356774000000 -0.001441077096 -0.003676784923 -0.000000957731 0.000004915034 -0.000052345560 -0.000003490012 -0.000277686457 -0.000425554026
1.368772000000 -0.001284669270 -0.003584487597 -0.000002447176 -0.000004842991 -0.000061185878 -0.000034411911 -0.000258053915 -0.000436033151
1.380770000000 -0.001398302964 -0.003616961185 0.000001973988 0.000001609599 -0.000063667765 -0.000022857075 -0.000262897112 -0.000442588149
1.392768000000 -0.001304341131 -0.003634357592 -0.000005901163 -0.000002407539 -0.000037973434 -0.000065055901 -0.000269285811 -0.000306240720
1.404766000000 -0.001302795252 -0.003733867314 0.000000255613 -0.000003459133 -0.000038218957 -0.000063999112 -0.000182252450 -0.000481171359
1.416764000000 -0.001504693413 -0.003757634666 0.000002174174 -0.000000032021 -0.000037980968 -0.000039096616 -0.000135947848 -0.000525858137
1.428762000000 -0.001428105053 -0.003522929503 0.000002437628 0.000000843808 -0.000012402174 -0.000078968522 -0.000216792730 -0.000493683561
1.440760000000 -0.001535082352 -0.003799622646 -0.000001667090 -0.000000111101 -0.000016865253 -0.000055622353 -0.000217820489 -0.000429742038
1.452758000000 -0.001459007268 -0.003622739343 -0.000006680283 0.000001267558 0.000003399497 -0.000074885102 -0.000158259034 -0.000341807608
1.464756000000 -0.001544740051 -0.003632706590 -0.000002526245 -0.000002652376 0.000012642843 -0.000073372197 -0.000231482263 -0.000329274510
1.476754000000 -0.001473795041 -0.003698006272 0.000003908481 0.000003045707 0.000020354044 -0.000072175128 -0.000174239904 -0.000466756377
1.488752000000 -0.001615945832 -0.003719327971 -0.000005028518 0.000001187428 0.000010801476 -0.000056383335 -0.000218335088 -0.000237002983
1.500750000000 -0.001594921690 -0.003743954236 0.000000633510 -0.000003940719 0.000065816035 -0.000055691486 -0.000219050387 -0.000372350012
1.512748000000 -0.001542042708 -0.003713168902 -0.000002109458 0.000004612066 0.000036437130 -0.000051471932 -0.000230310354 -0.000344183849
1.524746000000 -0.001570729539 -0.003891254310 0.000002004011 -0.000000018178 0.000073184339 -0.000030137231 -0.000189184764 -0.000409863482
1.536744000000 -0.001744083129 -0.003870306537 -0.000004224001 0.000004606225 0.000055849348 -0.000045269691 -0.000170153871 -0.000475188950
1.548742000000 -0.001723641646 -0.003872567788 0.000005687850 0.000000769743 0.000087657805 -0.000005625783 -0.000307602779 -0.000379713514
1.560740000000 -0.001752899843 -0.003836355405 0.000001858078 0.000002765650 0.000059996717 -0.000020026937 -0.000222781498 -0.000581200758
1.572738000000 -0.001759313280 -0.004016486928 -0.000000161595 -0.000004046000 0.000055789260 0.000004778582 -0.000173097549 -0.000471471838
1.584736000000 -0.001861898112 -0.003969207872 0.000003008522 0.000001807772 0.000063781270 0.000013355116 -0.000269422133 -0.000501784263
1.596734000000 -0.001653105603 -0.003958343528 -0.000005253580 0.000000977138 0.000065921980 0.000006720740 -0.000168076192 -0.000574384758
1.608732000000 -0.001743416185 -0.003876083763 0.000004389988 0.000003102040 0.000064255153 0.000066416927 -0.000163465505 -0.000553911843
1.620730000000 -0.001861509518 -0.004052869976 -0.000002538043 0.000001450887 0.000041413434 0.000046986839 -0.000137939191 -0.000585528149
1.632728000000 -0.001852399670 -0.004049499985 0.000005058818 -0.000004919018 0.000032720949 0.000061314786 -0.000116864612 -0.000462143653
1.644726000000 -0.001926832483 -0.004015972838 0.000005349987 -0.000002037408 0.000030085826 0.000084878382 -0.000258581393 -0.000405649305
1.656724000000 -0.001967540476 -0.004089960828 0.000000962644 0.000000854503 0.000019677493 0.000072309347 -0.000136565242 -0.000475737354
1.668722000000 -0.001839792472 -0.003961165901 0.000005817635 0.000003062979 0.000016623830 0.000096118965 -0.000199653645 -0.000365972519
1.680720000000 -0.001898330287 -0.003951441962 0.000003760389 -0.000002966206 0.000002613773 0.000089428562 0.000009371623 -0.000448825216
1.692718000000 -0.001936518238 -0.004071043339 0.000003746851 0.000005523361 0.000017028753 0.000099971090 -0.000037354177 -0.000552722951
