# GHZ S RI R 50
0.001000000000 -0.000640009996 -0.001433932921 -0.000710044405 0.001071017236 -0.000735368871 0.001780207618 0.001146588940 0.000425248116
0.012998000000 -0.000348300848 -0.000044394154 0.000002375606 -0.000002780347 -0.000007977681 -0.000008584182 -0.000470562460 -0.000004652812
0.024996000000 -0.000319531187 0.000012382753 -0.000002512118 0.000003345983 0.000011166660 -0.000002372091 -0.000479162147 -0.000051507333
0.036994000000 -0.000329056318 -0.000030100780 -0.000001999344 0.000003652242 -0.000007266946 -0.000008956800 -0.000534085266 -0.000079893623
0.048992000000 -0.000320888677 -0.000006296003 0.000000233064 -0.000002191171 0.000029515311 0.000020289890 -0.000522663468 -0.000114884882
0.060990000000 -0.000324321038 -0.000003305919 -0.000001329168 0.000001576780 0.000008229673 0.000005198782 -0.000550533354 -0.000143590471
0.072988000000 -0.000331722054 -0.000030208454 0.000002366034 -0.000007065174 0.000011316748 0.000015456568 -0.000565226248 -0.000187768543
0.084986000000 -0.000296018232 -0.000048894140 0.000000366283 0.000000244811 -0.000007662915 -0.000021850732 -0.000580994354 -0.000210135695
0.096984000000 -0.000310232776 -0.000020255120 -0.000003434840 -0.000002373349 -0.000015630636 -0.000017771443 -0.000603246677 -0.000232569670
0.108982000000 -0.000307260983 -0.000027111761 0.000006242528 -0.000001647898 0.000006861093 -0.000002593172 -0.000592939032 -0.000289540010
0.120980000000 -0.000287915755 -0.000066541434 -0.000007903441 -0.000002629740 0.000015141367 0.000036672369 -0.000590830285 -0.000305606256
0.132978000000 -0.000303491252 -0.000044264467 -0.000000485181 0.000000702965 0.000020503627 0.000008393543 -0.000599956256 -0.000355532422
0.144976000000 -0.000252795347 -0.000088366265 -0.000000053697 0.000004492802 -0.000002401679 -0.000039878138 -0.000588870491 -0.000380934798
0.156974000000 -0.000292821787 -0.000053065873 -0.000001531639 0.000007541561 0.000001339997 0.000037952355 -0.000618259655 -0.000407575862
0.168972000000 -0.000291662378 -0.000075764779 0.000005803052 0.000002979583 -0.000016727779 0.000022788043 -0.000631695497 -0.000434537767
0.180970000000 -0.000318548526 -0.000100250996 0.000005405837 0.000005040607 0.000024384995 -0.000019495323 -0.000607049733 -0.000498819631
0.192968000000 -0.000313787954 -0.000061603860 -0.000005930412 0.000002568084 -0.000008601337 0.000003645882 -0.000629210030 -0.000501738978
0.204966000000 -0.000309942261 -0.000126799117 -0.000004174929 -0.000002245519 -0.000003451729 0.000017245089 -0.000660373247 -0.000511777238
0.216964000000 -0.000246201933 -0.000115060000 -0.000001990361 0.000006384959 0.000007841608 0.000000576844 -0.000656779681 -0.000567685114
0.228962000000 -0.000258421089 -0.000035938567 -0.000005167614 0.000001183503 0.000016887203 0.000006544384 -0.000646582630 -0.000587531656
0.240960000000 -0.000244703871 -0.000091418071 -0.000005204576 0.000001869129 0.000000760348 -0.000019916573 -0.000636260491 -0.000611587893
0.252958000000 -0.000262988848 -0.000056188703 0.000002028741 0.000002841163 0.000016913289 0.000021739959 -0.000670957845 -0.000682185579
0.264956000000 -0.000223656665 -0.000083906467 0.000002270806 0.000006852105 0.000009539983 -0.000006395274 -0.000678293291 -0.000649573863
0.276954000000 -0.000227910277 -0.000118500720 0.000003469797 0.000000417183 0.000003199224 0.000018511135 -0.000694096088 -0.000725978287
0.288952000000 -0.000192598978 -0.000103583086 0.000006389691 0.000001043341 -0.000017321738 0.000006141233 -0.000658326200 -0.000745388621
0.300950000000 -0.000163277757 -0.000127456005 0.000000127521 0.000000110970 0.000000703252 0.000001484342 -0.000712457113 -0.000770340848
0.312948000000 -0.000176970789 -0.000114615104 0.000000906659 -0.000001113854 -0.000006852065 0.000009183635 -0.000737164461 -0.000778751622
0.324946000000 -0.000153131856 -0.000149460800 -0.000000309109 0.000001598344 -0.000016879954 0.000000031240 -0.000733560009 -0.000872534758
0.336944000000 -0.000183621669 -0.000136868097 0.000003997621 0.000005433928 -0.000001221296 -0.000008104441 -0.000788932899 -0.000874465215
0.348942000000 -0.000248402037 -0.000182955482 -0.000001590333 0.000002047630 0.000016045917 0.000026686981 -0.000811987091 -0.000929862028
0.360940000000 -0.000100177487 -0.000230390244 0.000004144725 0.000003110189 0.000004020266 0.000005803885 -0.000821471971 -0.000925107975
0.372938000000 -0.000175974303 -0.000134388902 -0.000002373969 -0.000002487194 0.000005518376 0.000001680641 -0.000775138789 -0.000974294671
0.384936000000 -0.000178191156 -0.000089904883 -0.000001963065 -0.000003206707 -0.000007065496 0.000003863896 -0.000871879747 -0.000985685620
0.396934000000 -0.000167327686 -0.000157839881 -0.000004656816 0.000002655802 -0.000003353542 0.000003987485 -0.000870012620 -0.001020734780
0.408932000000 -0.000092524446 -0.000161955235 -0.000005735822 0.000000369484 0.000009227546 -0.000006665070 -0.000887548900 -0.001052658423
0.420930000000 -0.000111029913 -0.000133792899 -0.000002106892 0.000006875312 -0.000018005056 0.000020122452 -0.000865967246 -0.001119435998
0.432928000000 -0.000194134933 -0.000091751135 -0.000004570677 0.000004405998 -0.000030501280 0.000017030581 -0.000891135423 -0.001139509724
0.444926000000 -0.000103955055 -0.000223610608 -0.000004699900 0.000001318794 -0.000018567580 0.000002147309 -0.000973690185 -0.001193453907
0.456924000000 -0.000033504944 -0.000237418019 -0.000002327299 -0.000000872964 0.000002832864 0.000001222676 -0.000935911376 -0.001183349988
0.468922000000 -0.000091525137 -0.000148104722 0.000003121011 -0.000000192951 -0.000003217034 -0.000011362301 -0.000978389289 -0.001249969471
0.480920000000 -0.000029338353 -0.000144440652 0.000004292975 0.000003766892 0.000027882286 0.000002662249 -0.000988901709 -0.001215197844
0.492918000000 -0.000070204886 -0.000144439080 -0.000003292073 0.000003377451 0.000001869005 -0.000013542377 -0.001004846999 -0.001301275799
0.504916000000 -0.000025343961 -0.000190889230 -0.000000169242 -0.000002601387 0.000000382708 -0.000003529928 -0.001057277666 -0.001346660894
0.516914000000 -0.000125823382 -0.000144934951 -0.000000848771 0.000000739133 0.000020887683 0.000004699265 -0.001071224455 -0.001366090961
0.528912000000 -0.000074380172 -0.000105818755 0.000000524571 0.000002700688 0.000015932339 -0.000004367238 -0.001046586432 -0.001386175514
0.540910000000 -0.000003579358 -0.000191647603 -0.000004312725 0.000003246731 0.000040040075 0.000010619241 -0.001139450585 -0.001427347306
0.552908000000 -0.000007711975 -0.000216305503 -0.000001082613 0.000002165724 0.000030324558 -0.000007092508 -0.001096323249 -0.001523159095
0.564906000000 0.000081493527 -0.000239329776 -0.000003715723 0.000004832535 0.000009825976 0.000021309752 -0.001207666355 -0.001517735305
0.576904000000 -0.000006891868 -0.000227339377 -0.000006714208 -0.000000578192 -0.000002710579 0.000005262235 -0.001193871140 -0.001571020810
0.588902000000 0.000105698309 -0.000217135719 -0.000005987253 -0.000000333992 -0.000004585987 -0.000001757591 -0.001249583554 -0.001629304839
0.600900000000 0.000079688456 -0.000249008008 0.000002500405 -0.000004514474 -0.000007385771 -0.000016208214 -0.001259376644 -0.001727110939
0.612898000000 0.000112316120 -0.000317347673 0.000001668911 0.000001435952 0.000007038559 0.000006253061 -0.001264629071 -0.001676796935
0.624896000000 0.000040600295 -0.000239817338 -0.000000434155 0.000003674582 -0.000002404219 0.000030194231 -0.001242021332 -0.001758554601
0.636894000000 0.000158277180 -0.000292907207 -0.000001674222 0.000005845858 -0.000015872491 0.000011330514 -0.001331457170 -0.001758858911
0.648892000000 0.000015752574 -0.000243211340 0.000002133778 0.000003884911 0.000003290393 -0.000014514540 -0.001301513403 -0.001837565331
0.660890000000 0.000139508556 -0.000244140421 0.000003823799 0.000005656057 0.000007140606 -0.000018459046 -0.001311743399 -0.001823305967
0.672888000000 0.000236187407 -0.000220173999 0.000001158705 0.000008313664 -0.000012399981 0.000042511248 -0.001338031376 -0.001908400678
0.684886000000 0.000114228103 -0.000234291714 -0.000003904143 -0.000007241053 -0.000021479729 0.000000539254 -0.001366618555 -0.001972873230
0.696884000000 0.000111027257 -0.000318149745 -0.000006027690 -0.000000739947 -0.000011280496 0.000005067981 -0.001446765498 -0.002024761634
0.708882000000 0.000218172878 -0.000376248994 0.000005094042 -0.000001206917 0.000003383815 -0.000006105969 -0.001453361358 -0.002045295201
0.720880000000 0.000027202723 -0.000263239519 -0.000002874074 0.000002405203 0.000014992841 -0.000016900791 -0.001449054223 -0.002077528508
0.732878000000 0.000133473601 -0.000294798578 0.000007439867 -0.000004582465 -0.000010005269 0.000013604516 -0.001480426057 -0.002100272570
0.744876000000 0.000144642341 -0.000280556356 -0.000006993754 -0.000004606544 -0.000023649496 -0.000003085054 -0.001533776871 -0.002090355149
0.756874000000 0.000100717269 -0.000265011331 0.000003314610 -0.000006979621 0.000009524583 0.000004980446 -0.001515309326 -0.002158685587
0.768872000000 0.000184258184 -0.000320113701 0.000006680878 -0.000002428754 0.000025443998 0.000027544340 -0.001636453788 -0.002192621818
0.780870000000 0.000094398551 -0.000222279225 0.000007018074 -0.000005795816 -0.000037526286 -0.000017526716 -0.001713224570 -0.002265593270
0.792868000000 0.000161944845 -0.000141592609 0.000004215217 0.000001752219 0.000005426265 0.000010239607 -0.001773842378 -0.002161605051
0.804866000000 0.000001375094 -0.000168747632 -0.000004690071 0.000008066180 -0.000024474113 0.000008742640 -0.001774128992 -0.002279038774
0.816864000000 0.000073526768 -0.000278016145 0.000002226829 0.000000326618 0.000019083951 0.000032580119 -0.001769819413 -0.002402534243
0.828862000000 0.000032413798 -0.000308572402 0.000007870257 -0.000005190637 0.000006905380 0.000023582168 -0.001737476327 -0.002328035189
0.840860000000 0.000014156317 -0.000293283229 0.000008965145 -0.000004639835 -0.000007584166 0.000000858135 -0.001845151186 -0.002579244319
0.852858000000 0.000063912594 -0.000260956440 0.000005261787 -0.000006462553 -0.000000701921 -0.000024565943 -0.001855969080 -0.002321158769
0.864856000000 -0.000022621922 -0.000312158896 0.000004545054 -0.000000625048 -0.000006465281 -0.000007700676 -0.002016787883 -0.002407989698
0.876854000000 -0.000015765332 -0.000298563566 0.000005090713 -0.000007368959 0.000000559175 -0.000005786306 -0.002050790936 -0.002538189292
0.888852000000 0.000088000386 -0.000385488878 0.000001940675 0.000008961083 -0.000015752028 0.000014334923 -0.002010585275 -0.002597717335
0.900850000000 -0.000010074949 -0.000357411627 0.000000201986 0.000004079814 -0.000001575490 0.000003971447 -0.001919880975 -0.002731142100
0.912848000000 0.000238713430 -0.000231956408 -0.000006401224 0.000007205911 -0.000000429905 0.000009535895 -0.002109484980 -0.002765438519
0.924846000000 0.000115630486 -0.000121695695 -0.000001100051 -0.000002587391 0.000010457065 -0.000005905051 -0.001986172283 -0.002897066996
0.936844000000 0.000055913995 -0.000255357794 0.000002727630 -0.000006453624 -0.000001807913 0.000000002940 -0.002068626694 -0.002846950432
0.948842000000 0.000218936810 -0.000086655753 0.000002046642 -0.000010022790 -0.000003784608 0.000019404893 -0.002235252643 -0.002844403498
0.960840000000 0.000389953202 -0.000289901043 0.000007105180 -0.000004376142 0.000028620265 0.000001544984 -0.002067800611 -0.002848441945
0.972838000000 0.000267870288 -0.000117002332 -0.000004947103 -0.000002541329 -0.000000780690 0.000014688083 -0.002096657176 -0.002774399472
0.984836000000 0.000100589808 -0.000305060705 -0.000000269315 0.000000872212 -0.000000205029 0.000000214430 -0.002172925975 -0.002882360946
0.996834000000 0.000280342763 -0.000217910128 -0.000009583130 0.000005727873 -0.000022975744 -0.000001900731 -0.002248384058 -0.002976071090
1.008832000000 -0.000007730134 -0.000311309326 0.000003690879 -0.000002835958 -0.000014946592 -0.000005739739 -0.002210205188 -0.002994822105
1.020830000000 0.000185890647 -0.000269713200 -0.000004305393 0.000008412493 -0.000026936048 -0.000002988983 -0.002312630182 -0.003054901492
1.032828000000 0.000075166907 -0.000261109584 0.000005343646 -0.000004349289 0.000013862784 0.000020746358 -0.002309315838 -0.003025851212
1.044826000000 -0.000024839572 -0.000273375888 -0.000005171988 0.000002899996 0.000010598094 0.000002675210 -0.002266203519 -0.002979424084
1.056824000000 0.000113737282 -0.000268772565 0.000010399220 0.000000629234 0.000008471069 0.000013717766 -0.002292833757 -0.003022307996
1.068822000000 -0.000006481122 -0.000418351206 0.000004805453 0.000002753511 -0.000007336035 -0.000026661410 -0.002338990103 -0.003037506714
1.080820000000 0.000244290219 -0.000284329552 -0.000004503026 0.000007671851 0.000011781962 0.000012924505 -0.002352533862 -0.003128198907
1.092818000000 0.000226101867 -0.000355936500 -0.000004325817 0.000003753466 -0.000004988815 0.000036563830 -0.002423122060 -0.003169705160
1.104816000000 -0.000107242777 -0.000383832725 0.000004340087 -0.000000884760 0.000001012339 0.000024394611 -0.002463753801 -0.003179373918
1.116814000000 -0.000010195203 -0.000356003962 0.000001426265 -0.000003493053 -0.000022078433 0.000021621838 -0.002565952251 -0.003249080619
1.128812000000 -0.000084756975 -0.000346768094 -0.000001847660 -0.000002663671 -0.000011337405 -0.000017772763 -0.002614445752 -0.003264863743
1.140810000000 -0.000043042990 -0.000238918685 -0.000007262419 0.000001820595 -0.000001719754 0.000018857399 -0.002726443810 -0.003292131936
1.152808000000 -0.000145525672 -0.000429093372 0.000005134272 -0.000003714493 -0.000004281095 0.000016629561 -0.002780584386 -0.003401256399
1.164806000000 -0.000203159274 -0.000378620753 0.000005124443 0.000002005595 -0.000016347609 0.000003460499 -0.002790843602 -0.003479538253
1.176804000000 -0.000120787678 -0.000315192825 0.000005488439 0.000008440091 0.000002714482 0.000010153378 -0.002821582370 -0.003508705180
1.188802000000 -0.000040106948 -0.000370913156 -0.000001087457 0.000000421752 0.000001399116 -0.000004557798 -0.003008796601 -0.003552610287
1.200800000000 -0.000189681276 -0.000318983715 -0.000004935780 -0.000002798228 -0.000024958188 0.000011192716 -0.002912419382 -0.003645156277
1.212798000000 -0.000238767330 -0.000324462948 0.000009368777 0.000004500572 0.000018668734 -0.000004181869 -0.003027516650 -0.003702739021
1.224796000000 -0.000095050156 -0.000344973232 -0.000005042213 0.000004001885 -0.000001471047 0.000006282397 -0.003074913286 -0.003737193067
1.236794000000 -0.000232114166 -0.000388324261 -0.000004184996 -0.000006228125 0.000000880511 -0.000005899268 -0.003017564071 -0.003777809441
1.248792000000 -0.000147240120 -0.000186988123 0.000011441424 0.000000217609 -0.000020351494 -0.000014586779 -0.003141488880 -0.003818543861
1.260790000000 -0.000015310437 -0.000232791353 0.000002331006 0.000000890337 0.000015843252 -0.000003223838 -0.003123747651 -0.003993135411
1.272788000000 -0.000120069169 -0.000146177772 -0.000009917423 0.000001570789 0.000022465521 0.000001906831 -0.003337914124 -0.003976293374
1.284786000000 -0.000305310474 -0.000246602256 0.000001451479 0.000005398289 0.000010689985 0.000002125643 -0.003466119990 -0.004155145027
1.296784000000 0.000016837761 -0.000474471832 0.000000178121 -0.000001369200 0.000011284916 0.000008878756 -0.003426706186 -0.004202311393
1.308782000000 -0.000304244837 -0.000362825376 -0.000000566569 0.000001893809 -0.000008343544 -0.000002535972 -0.003576133400 -0.004327639937
1.320780000000 -0.000326137611 -0.000539101718 0.000000381357 0.000000621021 0.000000486498 0.000011420632 -0.003580863588 -0.004257456400
1.332778000000 -0.000413039408 -0.000447403087 0.000002627248 -0.000006108747 -0.000021019432 -0.000042301755 -0.003493013326 -0.004446587991
1.344776000000 -0.000361431157 -0.000533848826 -0.000001811713 0.000010569220 -0.000009623162 0.000006942143 -0.003703313647 -0.004485049285
1.356774000000 -0.000588514085 -0.000522948918 -0.000006803828 -0.000000507493 0.000004630783 0.000002319081 -0.003781578038 -0.004720554687
1.368772000000 -0.000349016540 -0.000413054193 0.000005679900 0.000000959094 -0.000006434720 -0.000027380956 -0.003824169049 -0.004867737181
1.380770000000 -0.000324448221 -0.000335285498 -0.000000100735 0.000005553671 -0.000004313103 -0.000010900406 -0.003859639866 -0.004979132209
1.392768000000 -0.000279557047 -0.000540288049 0.000002214740 -0.000005144532 0.000015556943 -0.000006261677 -0.003790697781 -0.004830033984
1.404766000000 -0.000274758961 -0.000491812709 0.000006039058 0.000001710978 0.000017081013 -0.000040105104 -0.003728724318 -0.004782010801
1.416764000000 -0.000516169181 -0.000511204766 -0.000003994235 -0.000003111010 0.000011164097 -0.000009917273 -0.003723551752 -0.004841262009
1.428762000000 -0.000450080697 -0.000308993360 0.000000268946 0.000006050648 0.000008744503 0.000001386827 -0.003823618637 -0.004811782856
1.440760000000 -0.000509536418 -0.000473625725 -0.000001633875 0.000005069774 0.000016649034 -0.000030328576 -0.003946113866 -0.004802301060
1.452758000000 -0.000412997528 -0.000320115389 -0.000003232927 -0.000002653006 0.000007950604 0.000003247766 -0.003867080435 -0.004726693034
1.464756000000 -0.000386950094 -0.000281333312 0.000013542050 0.000002016807 0.000015625375 -0.000018756491 -0.003942921292 -0.004740443081
1.476754000000 -0.000336618978 -0.000289484713 0.000005113139 0.000006399517 -0.000009979194 -0.000011264651 -0.003961953800 -0.004799852613
1.488752000000 -0.000474333297 -0.000324449036 0.000004452069 -0.000005174143 -0.000007270693 0.000000623512 -0.003822779050 -0.004851807375
1.500750000000 -0.000484019343 -0.000310588599 -0.000008610402 0.000004076609 -0.000002590029 0.000008267336 -0.003994124010 -0.004819678143
1.512748000000 -0.000473566703 -0.000307341077 0.000003631527 0.000002874007 -0.000020593394 0.000005611000 -0.004060543142 -0.004900126718
1.524746000000 -0.000473756547 -0.000363544881 -0.000001397572 0.000001670846 -0.000000036595 0.000003090824 -0.004139935132 -0.004956131801
1.536744000000 -0.000377106975 -0.000331830437 0.000000880310 0.000001443893 0.000014050733 0.000012928929 -0.004033630714 -0.005011549219
1.548742000000 -0.000606387504 -0.000278456806 0.000007456838 -0.000004486619 -0.000009203624 -0.000031020594 -0.004265337251 -0.005093088839
1.560740000000 -0.000354224001 -0.000334885699 -0.000000418044 -0.000005628357 0.000013330956 0.000021060647 -0.004119502380 -0.005248141475
1.572738000000 -0.000407803949 -0.000619294879 -0.000003346516 0.000001073091 0.000009150203 0.000023140658 -0.004221423995 -0.005313288886
1.584736000000 -0.000524226984 -0.000475910463 0.000000400311 0.000002672965 -0.000004453408 0.000001007823 -0.004367860034 -0.005497649312
1.596734000000 -0.000306010887 -0.000461205986 0.000001030736 0.000002576025 -0.000000236444 0.000004738514 -0.004253798630 -0.005561744329
1.608732000000 -0.000341310195 -0.000420257245 0.000003153797 0.000005374941 0.000001151605 -0.000014452080 -0.004284020048 -0.005670062266
1.620730000000 -0.000338591897 -0.000470830797 -0.000011016562 -0.000005865571 0.000000301192 -0.000008088611 -0.004297660198 -0.005678711459
1.632728000000 -0.000308707677 -0.000494890555 -0.000001706831 -0.000007375529 0.000013245582 -0.000035503774 -0.004293193575 -0.005627159495
1.644726000000 -0.000440153846 -0.000398693403 0.000009740601 -0.000000011246 -0.000020015175 0.000034661840 -0.004414464347 -0.005550108850
1.656724000000 -0.000356802018 -0.000344917295 0.000006622557 -0.000011375563 -0.000014066721 0.000004430452 -0.004243084695 -0.005555585492
1.668722000000 -0.000408876425 -0.000364261796 0.000000825533 -0.000001717055 0.000007089907 0.000004371902 -0.004165905062 -0.005506720860
1.680720000000 -0.000185682089 -0.000386434665 0.000003568747 0.000001357624 0.000016915375 -0.000018971414 -0.004220891744 -0.005721064284
1.692718000000 -0.000151529995 -0.000426960265 -0.000002341098 0.000000465462 0.000023169832 -0.000011281170 -0.004174877889 -0.005778599065
