# GHZ S RI R 50
0.006000000000 0.439372628927 -0.181761056185 0.000013110157 -0.000032657532 0.000102672071 -0.000007611626 -0.781644940376 -0.078089646995
0.012000000000 0.286217659712 -0.351432383060 0.000011029978 -0.000008284824 -0.000019874456 0.000005158912 -0.790824592113 -0.014242735691
0.018000000000 0.097772330046 -0.423111021519 -0.000010662602 0.000002224133 0.000019620265 0.000039990129 -0.786710977554 0.040775425732
0.024000000000 -0.086168259382 -0.413272947073 -0.000004106385 -0.000010498440 0.000005400859 0.000009197541 -0.782607913017 0.083289355040
0.030000000000 -0.237648874521 -0.339353352785 0.000011411300 0.000007710247 -0.000019126381 -0.000004589521 -0.773148059845 0.122677192092
0.036000000000 -0.348169654608 -0.216659262776 0.000014819773 -0.000016952012 -0.000003924626 -0.000036792833 -0.772072792053 0.164592668414
0.042000000000 -0.404879540205 -0.067215591669 -0.000011512398 0.000018418819 -0.000017915761 -0.000016563123 -0.764614284039 0.198746576905
0.048000000000 -0.402835398912 0.091909885406 -0.000003816752 -0.000041057010 0.000152788882 0.000031394600 -0.754799067974 0.236925929785
0.054000000000 -0.342667192221 0.242011368275 0.000006655219 0.000011271426 0.000052896212 -0.000019356188 -0.742165863514 0.273067563772
0.060000000000 -0.228569030762 0.354427278042 -0.000006908138 -0.000010580618 0.000013034075 -0.000019193474 -0.714184224606 0.305503934622
0.066000000000 -0.063305675983 0.433884114027 0.000002812434 0.000016268572 -0.000029266504 -0.000012988678 -0.710005819798 0.349331527948
0.072000000000 0.122720986605 0.429879903793 0.000003474938 0.000021352555 0.000002420608 -0.000018291410 -0.692678511143 0.384452521801
0.078000000000 0.296422094107 0.342123955488 0.000003841808 -0.000002986917 0.000018295252 -0.000013934974 -0.674399375916 0.416949838400
0.084000000000 0.415491044521 0.180957376957 -0.000017563456 0.000004634402 0.000004763982 -0.000021776905 -0.654301583767 0.449702888727
0.090000000000 0.447544276714 -0.018259100616 -0.000004334691 -0.000005297625 0.000003772821 -0.000024744832 -0.632336199284 0.482062637806
0.096000000000 0.385819524527 -0.206742241979 0.000017056618 -0.000009289954 -0.000014395692 -0.000010239531 -0.609514892101 0.512867987156
0.102000000000 0.251541405916 -0.342166930437 0.000004099230 -0.000019661178 0.000006323547 0.000005573815 -0.585117280483 0.542669177055
0.108000000000 0.081375204027 -0.403303802013 -0.000000592886 -0.000001947791 -0.000009286675 -0.000007164905 -0.560245394707 0.570477545261
0.114000000000 -0.089055649936 -0.390426516533 0.000012723507 -0.000000309769 -0.000023156170 -0.000029898134 -0.533534288406 0.598035156727
0.120000000000 -0.233454525471 -0.315680891275 0.000014258767 0.000000824611 0.000005796132 0.000006266655 -0.505050480366 0.623908340931
0.126000000000 -0.334910929203 -0.196281820536 -0.000001883422 -0.000002437946 0.000001684154 -0.000005758047 -0.474479347467 0.650416195393
0.132000000000 -0.385621249676 -0.050196681172 0.000032000466 -0.000008436387 0.000002023643 -0.000002423747 -0.443361550570 0.674502551556
0.138000000000 -0.378659337759 0.104025736451 0.000000036268 -0.000020444733 0.000025969448 -0.000005110561 -0.411157965660 0.696967840195
0.144000000000 -0.313965678215 0.247191846371 0.000011803392 -0.000010020058 0.000055318353 0.000033079297 -0.377778649330 0.718308627605
0.150000000000 -0.194371402264 0.358968704939 -0.000001292445 -0.000005157662 -0.000012053413 -0.000028445804 -0.342042803764 0.738309860229
0.156000000000 -0.034318313003 0.415734589100 -0.000014560943 0.000000674551 -0.000038951272 -0.000036945839 -0.307586342096 0.756146430969
0.162000000000 0.142171949148 0.399462908506 -0.000006254490 -0.000002826204 -0.000023339799 -0.000023612927 -0.270660907030 0.772165060043
0.168000000000 0.300153523684 0.304221034050 -0.000013403753 0.000021814789 0.000000143783 -0.000014590657 -0.233700439334 0.786821722984
0.174000000000 0.400785803795 0.144839078188 -0.000003319595 -0.000014602258 0.000000385815 -0.000004663571 -0.195687130094 0.799557983875
0.180000000000 0.417925894260 -0.043330278248 0.000006076390 0.000008266583 -0.000014791987 -0.000008612767 -0.156177088618 0.810809671879
0.186000000000 0.352308213711 -0.208720475435 -0.000011720418 0.000009608816 -0.000013866166 -0.000034483059 -0.115455865860 0.812199175358
0.192000000000 0.218077898026 -0.335093319416 -0.000001525645 0.000016883050 0.000005340157 -0.000008979825 -0.076658099890 0.827564716339
0.198000000000 0.056235674769 -0.385854363441 0.000002300271 0.000003179752 -0.000036003559 0.000005372980 -0.035971306264 0.832422912121
0.204000000000 -0.104532420635 -0.367928773165 -0.000015535739 -0.000008861333 0.000015293943 -0.000029761346 0.005213961471 0.836656630039
0.210000000000 -0.240330055356 -0.292369633913 -0.000017575892 0.000000134392 -0.000018283939 -0.000047295682 0.047981824726 0.838206350803
0.216000000000 -0.333915054798 -0.175620257854 0.000011092930 -0.000140565200 -0.000579604297 -0.001328683109 0.087803937495 0.833815693855
0.222000000000 -0.379096150398 -0.032301671803 0.000049495968 -0.000100624726 0.000057202058 0.000002822766 0.130996719003 0.834956824780
0.228000000000 -0.367572009563 0.116758130491 0.000007398688 -0.000007977102 0.000004864145 -0.000020352651 0.172731786966 0.830715298653
0.234000000000 -0.299930691719 0.253225505352 -0.000001820567 -0.000005410267 -0.000001366933 -0.000020610609 0.214049652219 0.823676586151
0.240000000000 -0.181716322899 0.355839312077 0.000011845284 -0.000015814157 0.000008422659 -0.000019505887 0.253848731518 0.815013587475
0.246000000000 -0.027071502060 0.404291391373 0.000006210784 -0.000004567654 0.000002542357 0.000014368785 0.296609133482 0.803966164589
0.252000000000 0.139381304383 0.383591145277 -0.000007681982 -0.000003655769 -0.000027711474 -0.000020662494 0.337145835161 0.790634274483
0.258000000000 0.284465163946 0.290929734707 -0.000009682674 -0.000010670450 0.000023659737 0.000140364500 0.376386076212 0.776153147221
0.264000000000 0.375430017710 0.141681730747 -0.000011697976 -0.000011887089 -0.000039681072 -0.000026529637 0.416844934225 0.758657872677
0.270000000000 0.390678495169 -0.032244384289 0.000018851813 0.000030093777 -0.000040279403 0.000045188081 0.459274619818 0.737540066242
0.276000000000 0.329126805067 -0.192036867142 -0.000011207022 -0.000003685894 -0.000001924929 0.000004649111 0.497384697199 0.715762376785
0.282000000000 0.208419874310 -0.305801600218 0.000163539022 -0.000009293707 0.000027882070 0.000290801661 0.535150766373 0.691820442677
0.288000000000 0.057522807270 -0.356908470392 0.000007702874 -0.000002461442 -0.000156890412 0.000152884182 0.571212232113 0.665899813175
0.294000000000 -0.095522001386 -0.343424797058 0.000013529681 -0.000004969345 0.000015606696 -0.000014147512 0.607111871243 0.636975049973
0.300000000000 -0.226800620556 -0.273314595222 -0.000000163223 -0.000002138899 -0.000020287391 -0.000012246593 0.641694128513 0.606361806393
0.306000000000 -0.318944811821 -0.161431610584 0.000015057998 0.000002686848 0.000006557524 -0.000010376148 0.675049722195 0.572971343994
0.312000000000 -0.362109661102 -0.024947395548 0.000009442036 -0.000018569892 -0.000011163187 -0.000026465208 0.706847131252 0.537605106831
0.318000000000 -0.350873887539 0.116849467158 0.000008117098 -0.000014066036 -0.000032141248 -0.000009454088 0.740048706532 0.495700836182
0.324000000000 -0.286305397749 0.245373815298 -0.000026269816 -0.000012889952 0.000048602353 -0.000026440997 0.767081856728 0.457999229431
0.330000000000 -0.175219103694 0.340142905712 -0.000006054901 0.000013224326 0.000005148351 0.000001246801 0.791771709919 0.419114112854
0.336000000000 -0.032126735896 0.383955031633 -0.000020060745 -0.000001254942 -0.000016192811 -0.000005094631 0.814868927002 0.377638816833
0.342000000000 0.119032487273 0.365355521441 -0.000013789791 0.000009882683 0.000030724008 -0.000024396726 0.835812091827 0.334818631411
0.348000000000 0.250429898500 0.283373326063 -0.000006833950 0.000001680907 -0.000011823110 0.000019359266 0.853748321533 0.291554898024
0.354000000000 0.334829270840 0.152437955141 -0.000015835885 -0.000020208934 -0.000010312005 -0.000043530781 0.870156586170 0.248403236270
0.360000000000 0.353907644749 -0.001749873511 0.000022224722 0.000009285292 -0.000106660242 -0.000033386528 0.884398221970 0.201239436865
0.366000000000 0.305161893368 -0.147021681070 0.000005750504 -0.000000904532 -0.000047391390 -0.000026496664 0.895812392235 0.151636168361
0.372000000000 0.201198145747 -0.253694504499 -0.000008386704 -0.000012173973 -0.000001857421 -0.000024195433 0.899468302727 0.102936372161
0.378000000000 0.068350471556 -0.307328104973 -0.000016810234 0.000054098582 -0.000100397418 -0.000161486008 0.910026907921 0.063091844320
0.384000000000 -0.072379127145 -0.300661683083 0.000031739561 -0.000004845339 0.000078182049 -0.000170211846 0.913489520550 0.015555058606
0.390000000000 -0.195264369249 -0.239394634962 0.000011311193 -0.000013581739 -0.000002057358 -0.000021312562 0.914473354816 -0.032467465848
0.396000000000 -0.282060235739 -0.137130230665 -0.000006531161 0.000001295949 -0.000024203609 -0.000021625863 0.912640929222 -0.081173799932
0.402000000000 -0.321357101202 -0.010749287903 0.000008182268 -0.000007409791 -0.000023581595 -0.000010116049 0.907985746861 -0.131467759609
0.408000000000 -0.308471143246 0.119610607624 0.000021699499 0.000009948830 -0.000017424180 0.000020430409 0.900620818138 -0.180466786027
0.414000000000 -0.245869368315 0.234533980489 0.000008974615 0.000006337418 -0.000027089274 -0.000029816980 0.890280902386 -0.229555994272
0.420000000000 -0.142690420151 0.315089076757 -0.000025656394 -0.000001316588 -0.000017758191 -0.000034650617 0.876552641392 -0.278313875198
0.426000000000 -0.016014220193 0.348299205303 0.000008782627 0.000024458037 -0.000003892449 -0.000014788800 0.860644459724 -0.326928794384
0.432000000000 0.114566840231 0.326532870531 0.000018675813 -0.000025523344 -0.000213493448 -0.000067713714 0.841504931450 -0.373981267214
0.438000000000 0.223973408341 0.254171669483 0.000001683334 -0.000025395491 -0.000006928011 -0.000001184897 0.820958614349 -0.418506652117
0.444000000000 0.293750941753 0.142095655203 -0.000003334741 -0.000043390552 -0.000007690269 -0.000001404802 0.797316312790 -0.462891876698
0.450000000000 0.309959858656 0.012098850682 0.000020644744 -0.000002457484 0.000001892919 -0.000009677750 0.771342754364 -0.505304694176
0.456000000000 0.270254135132 -0.111638307571 0.000015301215 -0.000024091232 0.000017506889 -0.000016426027 0.743491351604 -0.546059250832
0.462000000000 0.183414265513 -0.205884277821 -0.000014922614 -0.000023815131 0.000017668646 0.000012150055 0.713209867477 -0.584541559219
0.468000000000 0.067085489631 -0.254188090563 0.000006537349 0.000006599405 -0.000019119618 -0.000008489663 0.682343959808 -0.620788693428
0.474000000000 -0.056929294020 -0.249919369817 -0.000009687480 0.000006729896 -0.000008560609 -0.000006634245 0.649334549904 -0.654934227467
0.480000000000 -0.165576294065 -0.196273013949 -0.000009095109 -0.000034031302 -0.000014340098 -0.000041096700 0.618233919144 -0.683964908123
0.486000000000 -0.241958916187 -0.104670390487 0.000033648510 -0.000017978866 0.000240753565 -0.000140597214 0.580376029015 -0.715984344482
0.492000000000 -0.274906098843 0.008048083633 0.000038985327 -0.000015939444 0.000001321676 -0.000030233454 0.541091322899 -0.745350301266
0.498000000000 -0.260198503733 0.122831925750 -0.000019045803 0.000006176750 -0.000015649401 -0.000034095883 0.500738918781 -0.772816419601
0.504000000000 -0.202195078135 0.220702514052 0.000012847797 0.000045086923 -0.000019692176 -0.000089575282 0.459280341864 -0.797819316387
0.510000000000 -0.111348353326 0.286771386862 -0.000018426432 -0.000014741823 -0.000031608644 -0.000060641149 0.416590422392 -0.818801522255
0.516000000000 -0.003340776777 0.311617940664 -0.000002546304 0.000005948575 0.000014875076 -0.000000276748 0.373581051826 -0.839070856571
0.522000000000 0.104053691030 0.291609376669 -0.000004240122 0.000016441947 -0.000006534730 -0.000011840550 0.329868316650 -0.855942249298
0.528000000000 0.193741545081 0.231208160520 0.000011109735 0.000027994623 0.000019191286 -0.000010381406 0.282749295235 -0.869601368904
0.534000000000 0.250892788172 0.140973955393 -0.000001193175 0.000007262426 -0.000000412792 -0.000012462493 0.235098615289 -0.884020447731
0.540000000000 0.266003012657 0.036246478558 0.000034030087 0.000007426622 -0.000062461382 0.000024002649 0.187247142196 -0.894836425781
0.546000000000 0.237029820681 -0.064148075879 -0.000021294987 0.000005176057 -0.000007117090 -0.000028406137 0.137021064758 -0.902204692364
0.552000000000 0.169269606471 -0.142560601234 -0.000006769523 -0.000038603510 -0.000035572939 -0.000031399377 0.088684245944 -0.906775772572
0.558000000000 0.076009012759 -0.184184312820 -0.000006108733 -0.000002205632 0.000009525183 0.000007805670 0.038506098092 -0.907595813274
0.564000000000 -0.024447213858 -0.182436645031 -0.000010962202 -0.000023329942 0.000009138477 -0.000018027908 -0.009269774891 -0.908092975616
0.570000000000 -0.113155342638 -0.138753458858 0.000001608569 -0.000020623682 0.000012794739 -0.000005273681 -0.058750763535 -0.906363844872
0.576000000000 -0.173245131969 -0.063725002110 0.000014705761 -0.000043382639 0.000117511314 -0.000905971217 -0.107526406646 -0.899416208267
0.582000000000 -0.196271359921 0.028649512678 -0.000016236823 -0.000013569306 -0.000001320291 -0.000039756713 -0.153821930289 -0.890661954880
0.588000000000 -0.179332688451 0.119177713990 0.000006580894 -0.000009444127 -0.000026780248 0.000004500296 -0.201764211059 -0.879472017288
0.594000000000 -0.128508433700 0.192844837904 0.000009444455 0.000001668355 0.000030440297 -0.000063201333 -0.247854441404 -0.866715073586
0.600000000000 -0.054702848196 0.238702178001 -0.000017446786 -0.000027699331 -0.000009387792 -0.000012541695 -0.292918235064 -0.850637614727
0.606000000000 0.029246620834 0.251069813967 -0.000020941727 0.000005330869 0.000014800522 -0.000056671750 -0.337126165628 -0.833206236362
0.612000000000 0.109055384994 0.229863718152 -0.000025211571 0.000002520912 0.000010234467 -0.000012960801 -0.379095405340 -0.813171625137
0.618000000000 0.172979399562 0.179792836308 0.000006518508 0.000000525494 0.000020897878 0.000026277741 -0.420775890350 -0.790150344372
0.624000000000 0.210414156318 0.109908424318 -0.000002496863 -0.000039843726 0.000000939175 -0.000008567418 -0.461322218180 -0.765444338322
0.630000000000 0.216602697968 0.032019045204 -0.000010146722 -0.000000894403 -0.000017553857 -0.000014090091 -0.498694509268 -0.740365564823
0.636000000000 0.190704867244 -0.040533546358 -0.000043493612 -0.000004517986 -0.000002231498 0.000001362901 -0.534971654415 -0.712694466114
0.642000000000 0.137150451541 -0.094793841243 0.000016770726 0.000007551155 -0.000365764630 0.000051263174 -0.570857405663 -0.682590544224
0.648000000000 0.066913634539 -0.121372371912 0.000007703497 0.000039373248 -0.000214664193 -0.000235563159 -0.605711400509 -0.649949669838
0.654000000000 -0.006930337287 -0.114655569196 -0.000012835364 -0.000009122626 0.000001187230 -0.000024054196 -0.638930499554 -0.616521537304
0.660000000000 -0.069741725922 -0.077432617545 0.000007430770 -0.000006866826 -0.000005448746 -0.000021312786 -0.667892217636 -0.582676887512
0.666000000000 -0.109586581588 -0.017984243110 -0.000004157922 -0.000005471704 0.000015116948 0.000003450156 -0.695240437984 -0.548685967922
0.672000000000 -0.120190933347 0.051161296666 0.000001927647 -0.000015948992 0.000003984227 0.000030906656 -0.720815420151 -0.513477385044
0.678000000000 -0.101516045630 0.116654664278 -0.000029204126 -0.000012235843 -0.000050469469 0.000047429625 -0.744871914387 -0.477510839701
0.684000000000 -0.058939978480 0.167535945773 -0.000017219565 0.000032064592 -0.000019864139 -0.000016386019 -0.765359640121 -0.440349370241
0.690000000000 -0.001535656047 0.196138605475 0.000001363366 -0.000011569306 -0.000018809837 -0.000029036941 -0.788343131542 -0.395323574543
0.696000000000 0.061009399593 0.199826151133 -0.000002490694 -0.000009091104 -0.000008880112 0.000024442328 -0.806085050106 -0.356149166822
0.702000000000 0.118156492710 0.179572418332 -0.000029510447 0.000008793750 -0.000056811965 0.000007541973 -0.821486532688 -0.316447675228
0.708000000000 0.161833778024 0.140002414584 0.000016356627 0.000010975018 0.000001713043 -0.000026649092 -0.835127770901 -0.276227861643
0.714000000000 0.186143755913 0.087854713202 0.000006135829 0.000002379853 -0.000003806140 -0.000041215655 -0.847331583500 -0.234286770225
0.720000000000 0.187602147460 0.032286733389 -0.000003981226 -0.000021148539 0.000004793985 0.000003303670 -0.856744945049 -0.193279266357
0.726000000000 0.167258873582 -0.017830457538 -0.000000700709 0.000005543212 0.000011171011 -0.000010278994 -0.865042984486 -0.150143459439
0.732000000000 0.129069209099 -0.053753297776 -0.000004243986 -0.000004205263 -0.000016557444 -0.000041270567 -0.871182858944 -0.105851389468
0.738000000000 0.080966651440 -0.069334439933 -0.000001879323 0.000006469597 0.000003669577 -0.000031377669 -0.875033199787 -0.062141336501
0.744000000000 0.032481674105 -0.062550827861 -0.000013831796 -0.000013033032 0.000003738394 -0.000031329419 -0.876573562622 -0.019245123491
0.750000000000 -0.006828061771 -0.035952273756 0.000006397835 0.000010488968 -0.000044604734 -0.000037523117 -0.876217842102 0.024587159976
0.756000000000 -0.029717613012 0.004228052683 0.000000069173 0.000009624217 -0.000002951013 -0.000014052968 -0.873491764069 0.068697080016
0.762000000000 -0.032545898110 0.048832412809 -0.000008605458 0.000000289500 0.000021727530 -0.000022986918 -0.868887305260 0.112626522779
0.768000000000 -0.016349427402 0.088958457112 -0.000015798898 0.000009225569 -0.000026950906 -0.000004647433 -0.862153530121 0.156863734126
0.774000000000 0.014569422230 0.117766782641 -0.000032411182 0.000009632723 0.000009343526 -0.000022303611 -0.852984964848 0.200381040573
0.780000000000 0.053523648530 0.130828037858 0.000008148628 -0.000010384979 -0.000005390142 -0.000000296548 -0.841977953911 0.242520779371
0.786000000000 0.093760393560 0.126994594932 -0.000014083938 -0.000000145776 0.000014927624 -0.000009388928 -0.828918695450 0.283753901720
0.792000000000 0.128309190273 0.107646130025 0.000003762645 -0.000026259357 -0.000002454163 -0.000034315566 -0.813833296299 0.324681431055
0.798000000000 0.151714012027 0.076760053635 0.000003560176 -0.000014622929 -0.000013529398 -0.000011711039 -0.797638177872 0.364741593599
0.804000000000 0.160637706518 0.039880990982 0.000014484384 -0.000000381359 0.000005400329 -0.000001319027 -0.777831554413 0.404739499092
0.810000000000 0.153951182961 0.003215080826 0.000029793273 -0.000005303993 -0.000031626081 -0.000000677131 -0.755987346172 0.443045049906
0.816000000000 0.133105009794 -0.027086205781 0.000015841124 -0.000003331196 -0.000004400095 -0.000020349155 -0.737534582615 0.475281208754
0.822000000000 0.101990237832 -0.045248020440 -0.000009833353 -0.000021296650 -0.000001115724 -0.000017314027 -0.713137209415 0.512129843235
0.828000000000 0.066784068942 -0.048117499799 0.000005143245 0.000012752312 -0.000006028344 -0.000020165275 -0.684214651585 0.548431754112
0.834000000000 0.034511450678 -0.035467818379 0.000004314834 -0.000003416201 -0.000010111022 -0.000025791711 -0.657963395119 0.581826806068
0.840000000000 0.011737674475 -0.010148679838 -0.000014245044 0.000017743976 0.000010127320 -0.000009503010 -0.630075573921 0.614466607571
0.846000000000 0.002651744522 0.022520506755 -0.000010566490 -0.000023660354 0.000001434424 -0.000028776865 -0.596572935581 0.645937025547
0.852000000000 0.008563724346 0.055127348751 0.000002753209 -0.000013516536 0.000001982818 -0.000011596232 -0.563156425953 0.675810337067
0.858000000000 0.027341734618 0.081958785653 -0.000003990857 -0.000019144201 -0.000006749219 0.000002321538 -0.529547572136 0.706191599369
